Freq.	V(out)
4.00000000000000e+00	(5.99968356145055e-03dB,-9.21353300494878e+00°)
4.09317196912302e+00	(6.28276295778880e-03dB,-9.42852999548021e+00°)
4.18851419220360e+00	(6.57907192603484e-03dB,-9.64856256001775e+00°)
4.28607722095043e+00	(6.88922321865659e-03dB,-9.87374997311537e+00°)
4.38591278457274e+00	(7.21385743364372e-03dB,-1.01042144296930e+01°)
4.48807381720785e+00	(7.55364422768957e-03dB,-1.03400811232783e+01°)
4.59261448598753e+00	(7.90928357703259e-03dB,-1.05814783268078e+01°)
4.69959021975812e+00	(8.28150708728709e-03dB,-1.08285374761028e+01°)
4.80905773846965e+00	(8.67107935363866e-03dB,-1.10813932561373e+01°)
4.92107508324952e+00	(9.07879937256368e-03dB,-1.13401836902279e+01°)
5.03570164717667e+00	(9.50550200650561e-03dB,-1.16050502322770e+01°)
5.15299820677253e+00	(9.95205950247172e-03dB,-1.18761378622146e+01°)
5.27302695422563e+00	(1.04193830658138e-02dB,-1.21535951847883e+01°)
5.39585153036661e+00	(1.09084244901680e-02dB,-1.24375745318626e+01°)
5.52153705841154e+00	(1.14201778444093e-02dB,-1.27282320683977e+01°)
5.65015017849101e+00	(1.19556812176739e-02dB,-1.30257279022886e+01°)
5.78175908298371e+00	(1.25160185226797e-02dB,-1.33302261982577e+01°)
5.91643355267283e+00	(1.31023213583220e-02dB,-1.36418952960034e+01°)
6.05424499374483e+00	(1.37157709314564e-02dB,-1.39609078328252e+01°)
6.19526647564992e+00	(1.43576000381628e-02dB,-1.42874408709550e+01°)
6.33957276984445e+00	(1.50290951043190e-02dB,-1.46216760298412e+01°)
6.48724038943572e+00	(1.57315982846877e-02dB,-1.49637996236505e+01°)
6.63834762975024e+00	(1.64665096202773e-02dB,-1.53140028042665e+01°)
6.79297460984697e+00	(1.72352892521542e-02dB,-1.56724817100838e+01°)
6.95120331499750e+00	(1.80394596904705e-02dB,-1.60394376209196e+01°)
7.11311764015569e+00	(1.88806081364214e-02dB,-1.64150771193810e+01°)
7.27880343443993e+00	(1.97603888545075e-02dB,-1.67996122590554e+01°)
7.44834854665146e+00	(2.06805255914862e-02dB,-1.71932607399131e+01°)
7.62184287185298e+00	(2.16428140384975e-02dB,-1.75962460913394e+01°)
7.79937839903217e+00	(2.26491243308271e-02dB,-1.80087978632443e+01°)
7.98104925987551e+00	(2.37014035800607e-02dB,-1.84311518257278e+01°)
8.16695177867811e+00	(2.48016784315043e-02dB,-1.88635501778160e+01°)
8.35718452341615e+00	(2.59520576389874e-02dB,-1.93062417658181e+01°)
8.55184835800892e+00	(2.71547346477984e-02dB,-1.97594823118966e+01°)
8.75104649579820e+00	(2.84119901748541e-02dB,-2.02235346534873e+01°)
8.95488455427335e+00	(2.97261947738934e-02dB,-2.06986689942520e+01°)
9.16347061107108e+00	(3.10998113711689e-02dB,-2.11851631673013e+01°)
9.37691526127968e+00	(3.25353977555723e-02dB,-2.16833029114792e+01°)
9.59533167607795e+00	(3.40356090040059e-02dB,-2.21933821615640e+01°)
9.81883566274011e+00	(3.56031998211103e-02dB,-2.27157033533084e+01°)
1.00475457260383e+01	(3.72410267684060e-02dB,-2.32505777443133e+01°)
1.02815831310754e+01	(3.89520503554019e-02dB,-2.37983257518110e+01°)
1.05210719675815e+01	(4.07393369607132e-02dB,-2.43592773085221e+01°)
1.07661392157076e+01	(4.26060605472806e-02dB,-2.49337722378462e+01°)
1.10169148133527e+01	(4.45555041305730e-02dB,-2.55221606497518e+01°)
1.12735317250578e+01	(4.65910609531285e-02dB,-2.61248033588483e+01°)
1.15361260125064e+01	(4.87162353124863e-02dB,-2.67420723262490e+01°)
1.18048369066655e+01	(5.09346429818264e-02dB,-2.73743511269766e+01°)
1.20798068816080e+01	(5.32500111548896e-02dB,-2.80220354448163e+01°)
1.23611817300543e+01	(5.56661778366085e-02dB,-2.86855335966939e+01°)
1.26491106406735e+01	(5.81870905901075e-02dB,-2.93652670888448e+01°)
1.29437462771851e+01	(6.08168045382162e-02dB,-3.00616712072509e+01°)
1.32452448593036e+01	(6.35594795026650e-02dB,-3.07751956450530e+01°)
1.35537662455681e+01	(6.64193761476665e-02dB,-3.15063051699040e+01°)
1.38694740181012e+01	(6.94008509746005e-02dB,-3.22554803345174e+01°)
1.41925355693430e+01	(7.25083499923355e-02dB,-3.30232182339799e+01°)
1.45231221908040e+01	(7.57464008606561e-02dB,-3.38100333137534e+01°)
1.48614091638869e+01	(7.91196032738958e-02dB,-3.46164582326868e+01°)
1.52075758528224e+01	(8.26326173155062e-02dB,-3.54430447857965e+01°)
1.55618057997712e+01	(8.62901494720435e-02dB,-3.62903648920672e+01°)
1.59242868221399e+01	(9.00969359452650e-02dB,-3.71590116530709e+01°)
1.62952111121645e+01	(9.40577228425479e-02dB,-3.80496004888154e+01°)
1.66747753388134e+01	(9.81772427565058e-02dB,-3.89627703579174e+01°)
1.70631807520637e+01	(1.02460187163383e-01dB,-3.98991850699559e+01°)
1.74606332896066e+01	(1.06911173972433e-01dB,-4.08595346987196e+01°)
1.78673436860385e+01	(1.11534709444327e-01dB,-4.18445371060057e+01°)
1.82835275845950e+01	(1.16335143559732e-01dB,-4.28549395866962e+01°)
1.87094056514879e+01	(1.21316617756803e-01dB,-4.38915206470123e+01°)
1.91452036929055e+01	(1.26483003763359e-01dB,-4.49550919291626e+01°)
1.95911527747378e+01	(1.31837832017800e-01dB,-4.60465002970600e+01°)
2.00474893450908e+01	(1.37384207897690e-01dB,-4.71666300993844e+01°)
2.05144553596545e+01	(1.43124713644740e-01dB,-4.83164056280524e+01°)
2.09922984099909e+01	(1.49061293480572e-01dB,-4.94967937920897e+01°)
2.14812718548101e+01	(1.55195118934856e-01dB,-5.07088070290307e+01°)
2.19816349543049e+01	(1.61526430841776e-01dB,-5.19535064782589e+01°)
2.24936530076139e+01	(1.68054353781899e-01dB,-5.32320054431581e+01°)
2.30175974934862e+01	(1.74776677933989e-01dB,-5.45454731715450e+01°)
2.35537462142235e+01	(1.81689602326485e-01dB,-5.58951389865521e+01°)
2.41023834429743e+01	(1.88787432310929e-01dB,-5.72822968028761e+01°)
2.46638000744592e+01	(1.96062222681092e-01dB,-5.87083100659905e+01°)
2.52382937792077e+01	(2.03503356188411e-01dB,-6.01746171544321e+01°)
2.58261691613862e+01	(2.11097045203354e-01dB,-6.16827372873843e+01°)
2.64277379203038e+01	(2.18825741884929e-01dB,-6.32342769812529e+01°)
2.70433190156792e+01	(2.26667439374976e-01dB,-6.48309370993700e+01°)
2.76732388367574e+01	(2.34594843152280e-01dB,-6.64745205378694e+01°)
2.83178313753654e+01	(2.42574387674390e-01dB,-6.81669405874679e+01°)
2.89774384029995e+01	(2.50565068704240e-01dB,-6.99102300044367e+01°)
2.96524096520366e+01	(2.58517056161600e-01dB,-7.17065508132523e+01°)
3.03431030011673e+01	(2.66370045850019e-01dB,-7.35582048466678e+01°)
3.10498846651476e+01	(2.74051300891195e-01dB,-7.54676450041582e+01°)
3.17731293889712e+01	(2.81473325072306e-01dB,-7.74374871741651e+01°)
3.25132206465639e+01	(2.88531100543084e-01dB,-7.94705227158134e+01°)
3.32705508441067e+01	(2.95098811424793e-01dB,-8.15697313273911e+01°)
3.40455215280950e+01	(3.01025963071987e-01dB,-8.37382940363316e+01°)
3.48385435982431e+01	(3.06132794307180e-01dB,-8.59796059218661e+01°)
3.56500375253497e+01	(3.10204867559011e-01dB,-8.82972880186518e+01°)
3.64804335742363e+01	(3.12986710527920e-01dB,-9.06951976377432e+01°)
3.73301720318795e+01	(3.14174374425297e-01dB,-9.31774360691812e+01°)
3.81997034408573e+01	(3.13406770461775e-01dB,-9.57483522863313e+01°)
3.90894888382323e+01	(3.10255651698422e-01dB,-9.84125408443512e+01°)
3.99999999999999e+01	(3.04214126692895e-01dB,-1.01174831644638e+02°)
4.09317196912300e+01	(2.94683631479309e-01dB,-1.04040268620550e+02°)
4.18851419220358e+01	(2.80959356388797e-01dB,-1.07014073695272e+02°)
4.28607722095041e+01	(2.62214235441233e-01dB,-1.10101591598286e+02°)
4.38591278457273e+01	(2.37481771972390e-01dB,-1.13308210361464e+02°)
4.48807381720784e+01	(2.05638209314099e-01dB,-1.16639251654543e+02°)
4.59261448598752e+01	(1.65384872966486e-01dB,-1.20099824731213e+02°)
4.69959021975810e+01	(1.15231918535907e-01dB,-1.23694637889999e+02°)
4.80905773846964e+01	(5.34852131502988e-02dB,-1.27427762346882e+02°)
4.92107508324951e+01	(-2.17613696415597e-02dB,-1.31302345687392e+02°)
5.03570164717665e+01	(-1.12625411325250e-01dB,-1.35320276066760e+02°)
5.15299820677252e+01	(-2.21423895252739e-01dB,-1.39481804440959e+02°)
5.27302695422561e+01	(-3.50646196231756e-01dB,-1.43785140476261e+02°)
5.39585153036660e+01	(-5.02908972380042e-01dB,-1.48226048044226e+02°)
5.52153705841152e+01	(-6.80890811028419e-01dB,-1.52797477240123e+02°)
5.65015017849100e+01	(-8.87246324750478e-01dB,-1.57489279587635e+02°)
5.78175908298369e+01	(-1.12450210068821e+00dB,-1.62288058547495e+02°)
5.91643355267281e+01	(-1.39494023346229e+00dB,-1.67177205293986e+02°)
6.05424499374481e+01	(-1.70047856420859e+00dB,-1.72137157278847e+02°)
6.19526647564990e+01	(-2.04255938641010e+00dB,-1.77145893699794e+02°)
6.33957276984443e+01	(-2.42205937366944e+00dB,1.77820349862553e+02°)
6.48724038943569e+01	(-2.83923218854746e+00dB,1.72786199775397e+02°)
6.63834762975022e+01	(-3.29369155677231e+00dB,1.67776176667371e+02°)
6.79297460984695e+01	(-3.78443716066105e+00dB,1.62813738411395e+02°)
6.95120331499748e+01	(-4.30991972461206e+00dB,1.57920428477167e+02°)
7.11311764015566e+01	(-4.86813652963594e+00dB,1.53115205284455e+02°)
7.27880343443991e+01	(-5.45674540773192e+00dB,1.48413997398440e+02°)
7.44834854665144e+01	(-6.07318449939510e+00dB,1.43829494920741e+02°)
7.62184287185296e+01	(-6.71478647778069e+00dB,1.39371157022460e+02°)
7.79937839903215e+01	(-7.37887882223564e+00dB,1.35045394455788e+02°)
7.98104925987549e+01	(-8.06286516408526e+00dB,1.30855875822453e+02°)
8.16695177867808e+01	(-8.76428595567356e+00dB,1.26803906149153e+02°)
8.35718452341612e+01	(-9.48085924320736e+00dB,1.22888832986798e+02°)
8.55184835800889e+01	(-1.02105039747656e+01dB,1.19108445484819e+02°)
8.75104649579817e+01	(-1.09513490996670e+01dB,1.15459342896747e+02°)
8.95488455427332e+01	(-1.17017318953394e+01dB,1.11937258884610e+02°)
9.16347061107105e+01	(-1.24601887111569e+01dB,1.08537335872807e+02°)
9.37691526127965e+01	(-1.32254408420465e+01dB,1.05254349331672e+02°)
9.59533167607792e+01	(-1.39963776864234e+01dB,1.02082885456862e+02°)
9.81883566274008e+01	(-1.47720387994913e+01dB,9.90174776634646e+01°)
1.00475457260383e+02	(-1.55515959766155e+01dB,9.60527080847001e+01°)
1.02815831310754e+02	(-1.63343361132858e+01dB,9.31832802575138e+01°)
1.05210719675815e+02	(-1.71196452893332e+01dB,9.04040687100142e+01°)
1.07661392157076e+02	(-1.79069943061057e+01dB,8.77101504688367e+01°)
1.10169148133526e+02	(-1.86959257524333e+01dB,8.50968227313947e+01°)
1.12735317250578e+02	(-1.94860425739998e+01dB,8.25596101923286e+01°)
1.15361260125064e+02	(-2.02769980581064e+01dB,8.00942648264132e+01°)
1.18048369066655e+02	(-2.10684871108790e+01dB,7.76967603344089e+01°)
1.20798068816080e+02	(-2.18602386881386e+01dB,7.53632829590001e+01°)
1.23611817300543e+02	(-2.26520092379527e+01dB,7.30902199700684e+01°)
1.26491106406735e+02	(-2.34435770175817e+01dB,7.08741467922242e+01°)
1.29437462771851e+02	(-2.42347371568096e+01dB,6.87118134909747e+01°)
1.32452448593036e+02	(-2.50252973512217e+01dB,6.66001311353626e+01°)
1.35537662455680e+02	(-2.58150740813742e+01dB,6.45361584035562e+01°)
1.38694740181012e+02	(-2.66038892660458e+01dB,6.25170886842483e+01°)
1.41925355693430e+02	(-2.73915672693221e+01dB,6.05402378429002e+01°)
1.45231221908040e+02	(-2.81779321918517e+01dB,5.86030327613008e+01°)
1.48614091638868e+02	(-2.89628053861047e+01dB,5.67030007163548e+01°)
1.52075758528224e+02	(-2.97460031438724e+01dB,5.48377596352946e+01°)
1.55618057997711e+02	(-3.05273345116208e+01dB,5.30050092463359e+01°)
1.59242868221398e+02	(-3.13065991957688e+01dB,5.12025231336562e+01°)
1.62952111121644e+02	(-3.20835855256215e+01dB,4.94281417014650e+01°)
1.66747753388133e+02	(-3.28580684466895e+01dB,4.76797660523842e+01°)
1.70631807520636e+02	(-3.36298075216033e+01dB,4.59553527891632e+01°)
1.74606332896066e+02	(-3.43985449199232e+01dB,4.42529097550483e+01°)
1.78673436860384e+02	(-3.51640033819760e+01dB,4.25704927361573e+01°)
1.82835275845949e+02	(-3.59258841455545e+01dB,4.09062031584094e+01°)
1.87094056514878e+02	(-3.66838648280076e+01dB,3.92581868213859e+01°)
1.91452036929054e+02	(-3.74375972600482e+01dB,3.76246337214737e+01°)
1.95911527747377e+02	(-3.81867052716181e+01dB,3.60037790262556e+01°)
2.00474893450908e+02	(-3.89307824344832e+01dB,3.43939052708319e+01°)
2.05144553596545e+02	(-3.96693897709688e+01dB,3.27933458539576e+01°)
2.09922984099908e+02	(-4.04020534434816e+01dB,3.12004899168610e+01°)
2.14812718548100e+02	(-4.11282624452429e+01dB,2.96137886895334e+01°)
2.19816349543049e+02	(-4.18474663190392e+01dB,2.80317633871963e+01°)
2.24936530076138e+02	(-4.25590729377690e+01dB,2.64530147324779e+01°)
2.30175974934862e+02	(-4.32624463881101e+01dB,2.48762341653301e+01°)
2.35537462142234e+02	(-4.39569050066532e+01dB,2.33002167816235e+01°)
2.41023834429742e+02	(-4.46417196262044e+01dB,2.17238760112820e+01°)
2.46638000744591e+02	(-4.53161120984200e+01dB,2.01462600064765e+01°)
2.52382937792076e+02	(-4.59792541671807e+01dB,1.85665696586028e+01°)
2.58261691613861e+02	(-4.66302667747410e+01dB,1.69841780986475e+01°)
2.64277379203037e+02	(-4.72682198891716e+01dB,1.53986514586958e+01°)
2.70433190156791e+02	(-4.78921329463382e+01dB,1.38097705830324e+01°)
2.76732388367573e+02	(-4.85009760019347e+01dB,1.22175532767409e+01°)
2.83178313753654e+02	(-4.90936716881309e+01dB,1.06222765702919e+01°)
2.89774384029994e+02	(-4.96690980644395e+01dB,9.02449836407355e+00°)
2.96524096520365e+02	(-5.02260924426862e+01dB,7.42507770246793e+00°)
3.03431030011672e+02	(-5.07634562508624e+01dB,5.82519281980808e+00°)
3.10498846651475e+02	(-5.12799609796958e+01dB,4.22635600878347e+00°)
3.17731293889711e+02	(-5.17743552288595e+01dB,2.63042429522640e+00°)
3.25132206465638e+02	(-5.22453728370902e+01dB,1.03960487207385e+00°)
3.32705508441066e+02	(-5.26917420428108e+01dB,-5.43545740045169e-01°)
3.40455215280949e+02	(-5.31121955803859e+01dB,-2.11612976840179e+00°)
3.48385435982430e+02	(-5.35054815736347e+01dB,-3.67492433078304e+00°)
3.56500375253496e+02	(-5.38703750449147e+01dB,-5.21640627803082e+00°)
3.64804335742362e+02	(-5.42056898175905e+01dB,-6.73678610618934e+00°)
3.73301720318794e+02	(-5.45102905548023e+01dB,-8.23205098552173e+00°)
3.81997034408572e+02	(-5.47831046509241e+01dB,-9.69801658388302e+00°)
3.90894888382322e+02	(-5.50231336764283e+01dB,-1.11303869623712e+01°)
3.99999999999997e+02	(-5.52294640739569e+01dB,-1.25248214142800e+01°)
4.09317196912299e+02	(-5.54012768143536e+01dB,-1.38770067301078e+01°)
4.18851419220357e+02	(-5.55378557463700e+01dB,-1.51827330291377e+01°)
4.28607722095040e+02	(-5.56385944117736e+01dB,-1.64379710283658e+01°)
4.38591278457271e+02	(-5.57030011466939e+01dB,-1.76389484452292e+01°)
4.48807381720783e+02	(-5.57307023473580e+01dB,-1.87822231686910e+01°)
4.59261448598750e+02	(-5.57214438403611e+01dB,-1.98647508929084e+01°)
4.69959021975809e+02	(-5.56750903604348e+01dB,-2.08839450890498e+01°)
4.80905773846962e+02	(-5.55916231984894e+01dB,-2.18377274845999e+01°)
4.92107508324949e+02	(-5.54711361360792e+01dB,-2.27245676078897e+01°)
5.03570164717664e+02	(-5.53138298266261e+01dB,-2.35435104137917e+01°)
5.15299820677250e+02	(-5.51200048169010e+01dB,-2.42941915050517e+01°)
5.27302695422559e+02	(-5.48900534235591e+01dB,-2.49768399712407e+01°)
5.39585153036658e+02	(-5.46244506890929e+01dB,-2.55922693532932e+01°)
5.52153705841150e+02	(-5.43237446404045e+01dB,-2.61418576790927e+01°)
5.65015017849098e+02	(-5.39885460629240e+01dB,-2.66275178830043e+01°)
5.78175908298367e+02	(-5.36195179858476e+01dB,-2.70516602049527e+01°)
5.91643355267279e+02	(-5.32173650517688e+01dB,-2.74171483551186e+01°)
6.05424499374479e+02	(-5.27828229187964e+01dB,-2.77272513282630e+01°)
6.19526647564988e+02	(-5.23166478169497e+01dB,-2.79855927629658e+01°)
6.33957276984441e+02	(-5.18196063545972e+01dB,-2.81960996765795e+01°)
6.48724038943568e+02	(-5.12924656459211e+01dB,-2.83629522809018e+01°)
6.63834762975020e+02	(-5.07359838073978e+01dB,-2.84905364129114e+01°)
6.79297460984693e+02	(-5.01509008502776e+01dB,-2.85833999165496e+01°)
6.95120331499745e+02	(-4.95379299769575e+01dB,-2.86462141021426e+01°)
7.11311764015564e+02	(-4.88977492716862e+01dB,-2.86837412050507e+01°)
7.27880343443988e+02	(-4.82309937598509e+01dB,-2.87008085781198e+01°)
7.44834854665142e+02	(-4.75382477947353e+01dB,-2.87022901951393e+01°)
7.62184287185293e+02	(-4.68200377156822e+01dB,-2.86930959245998e+01°)
7.79937839903213e+02	(-4.60768247066136e+01dB,-2.86781689629128e+01°)
7.98104925987546e+02	(-4.53089977684827e+01dB,-2.86624918014124e+01°)
8.16695177867806e+02	(-4.45168667030715e+01dB,-2.86511011494259e+01°)
8.35718452341610e+02	(-4.37006549882541e+01dB,-2.86491123551123e+01°)
8.55184835800887e+02	(-4.28604924060839e+01dB,-2.86617540678081e+01°)
8.75104649579815e+02	(-4.19964072645078e+01dB,-2.86944141857922e+01°)
8.95488455427329e+02	(-4.11083180309230e+01dB,-2.87526985538907e+01°)
9.16347061107102e+02	(-4.01960241711289e+01dB,-2.88425044483538e+01°)
9.37691526127962e+02	(-3.92591959607928e+01dB,-2.89701116585024e+01°)
9.59533167607789e+02	(-3.82973630094550e+01dB,-2.91422950132278e+01°)
9.81883566274005e+02	(-3.73099012118706e+01dB,-2.93664636032021e+01°)
1.00475457260382e+03	(-3.62960178233090e+01dB,-2.96508338582869e+01°)
1.02815831310754e+03	(-3.52547343543229e+01dB,-3.00046462602661e+01°)
1.05210719675814e+03	(-3.41848670151526e+01dB,-3.04384391047227e+01°)
1.07661392157076e+03	(-3.30850045447780e+01dB,-3.09643978138671e+01°)
1.10169148133526e+03	(-3.19534834975541e+01dB,-3.15968054924760e+01°)
1.12735317250577e+03	(-3.07883615462449e+01dB,-3.23526306623560e+01°)
1.15361260125063e+03	(-2.95873903046091e+01dB,-3.32523027907250e+01°)
1.18048369066655e+03	(-2.83479909636162e+01dB,-3.43207473201431e+01°)
1.20798068816080e+03	(-2.70672393938133e+01dB,-3.55887821120934e+01°)
1.23611817300543e+03	(-2.57418736412746e+01dB,-3.70950198682504e+01°)
1.26491106406734e+03	(-2.43683484731353e+01dB,-3.88884792513868e+01°)
1.29437462771850e+03	(-2.29429835812065e+01dB,-4.10321804239824e+01°)
1.32452448593035e+03	(-2.14622930875653e+01dB,-4.36080734851675e+01°)
1.35537662455680e+03	(-1.99236599506226e+01dB,-4.67236610880737e+01°)
1.38694740181012e+03	(-1.83266553320271e+01dB,-5.05204445405840e+01°)
1.41925355693429e+03	(-1.66755300632899e+01dB,-5.51833389033779e+01°)
1.45231221908039e+03	(-1.49837111469608e+01dB,-6.09472288583524e+01°)
1.48614091638868e+03	(-1.32812721564151e+01dB,-6.80894158243797e+01°)
1.52075758528223e+03	(-1.16252717439889e+01dB,-7.68823607001612e+01°)
1.55618057997711e+03	(-1.01080309959107e+01dB,-8.74674505245745e+01°)
1.59242868221398e+03	(-8.84837078857588e+00dB,-9.96423052175632e+01°)
1.62952111121644e+03	(-7.94830193473048e+00dB,-1.12699904910757e+02°)
1.66747753388133e+03	(-7.43204592051382e+00dB,-1.25589768428359e+02°)
1.70631807520636e+03	(-7.22889659896466e+00dB,-1.37396113711872e+02°)
1.74606332896065e+03	(-7.22116643179999e+00dB,-1.47685628664351e+02°)
1.78673436860384e+03	(-7.30177904025881e+00dB,-1.56470717238708e+02°)
1.82835275845948e+03	(-7.39844081690136e+00dB,-1.63991434401469e+02°)
1.87094056514878e+03	(-7.47107796708094e+00dB,-1.70542749900060e+02°)
1.91452036929054e+03	(-7.50145513960980e+00dB,-1.76394127688270e+02°)
1.95911527747377e+03	(-7.48427291854397e+00dB,1.78233228737470e+02°)
2.00000000000000e+03	(-7.42990229562063e+00dB,1.73677387278922e+02°)
