Freq.	V(out)
4.17000000000000e-02	(-5.44397822864076e+01dB,-1.04329392847928e+02°)
4.26713177781074e-02	(-5.38397629070368e+01dB,-1.04665066225879e+02°)
4.36652604537225e-02	(-5.32397430828598e+01dB,-1.05008698241655e+02°)
4.46823550284082e-02	(-5.26397228502137e+01dB,-1.05360484623213e+02°)
4.57231407791708e-02	(-5.20397022544686e+01dB,-1.05720626442098e+02°)
4.67881695443919e-02	(-5.14396813514256e+01dB,-1.06089330299182e+02°)
4.78780060164200e-02	(-5.08396602089128e+01dB,-1.06466808519694e+02°)
4.89932280409784e-02	(-5.02396389086094e+01dB,-1.06853279358202e+02°)
5.01344269235461e-02	(-4.96396175481278e+01dB,-1.07248967214225e+02°)
5.13022077428763e-02	(-4.90395962433918e+01dB,-1.07654102859223e+02°)
5.24971896718168e-02	(-4.84395751313525e+01dB,-1.08068923675779e+02°)
5.37200063056037e-02	(-4.78395543730887e+01dB,-1.08493673909851e+02°)
5.49713059978022e-02	(-4.72395341573474e+01dB,-1.08928604937027e+02°)
5.62517522040719e-02	(-4.66395147045865e+01dB,-1.09373975543829e+02°)
5.75620238339403e-02	(-4.60394962715903e+01dB,-1.09830052225167e+02°)
5.89028156107688e-02	(-4.54394791567408e+01dB,-1.10297109499147e+02°)
6.02748384401052e-02	(-4.48394637060363e+01dB,-1.10775430240540e+02°)
6.16788197866142e-02	(-4.42394503199651e+01dB,-1.11265306034334e+02°)
6.31155040597898e-02	(-4.36394394613555e+01dB,-1.11767037550878e+02°)
6.45856530086504e-02	(-4.30394316643414e+01dB,-1.12280934944295e+02°)
6.60900461256284e-02	(-4.24394275446042e+01dB,-1.12807318275951e+02°)
6.76294810598673e-02	(-4.18394278110716e+01dB,-1.13346517964915e+02°)
6.92047740401462e-02	(-4.12394332792827e+01dB,-1.13898875267515e+02°)
7.08167603076547e-02	(-4.06394448866585e+01dB,-1.14464742788252e+02°)
7.24662945588489e-02	(-4.00394637099509e+01dB,-1.15044485024527e+02°)
7.41542513986230e-02	(-3.94394909851810e+01dB,-1.15638478947811e+02°)
7.58815258040362e-02	(-3.88395281304267e+01dB,-1.16247114624112e+02°)
7.76490335988415e-02	(-3.82395767718669e+01dB,-1.16870795876793e+02°)
7.94577119390673e-02	(-3.76396387735501e+01dB,-1.17509940995033e+02°)
8.13085198099104e-02	(-3.70397162714242e+01dB,-1.18164983491448e+02°)
8.32024385342022e-02	(-3.64398117122373e+01dB,-1.18836372912648e+02°)
8.51404722927193e-02	(-3.58399278980129e+01dB,-1.19524575706743e+02°)
8.71236486566134e-02	(-3.52400680368977e+01dB,-1.20230076152070e+02°)
8.91530191322430e-02	(-3.46402358012988e+01dB,-1.20953377351675e+02°)
9.12296597186962e-02	(-3.40404353943578e+01dB,-1.21695002298306e+02°)
9.33546714782997e-02	(-3.34406716259565e+01dB,-1.22455495014938e+02°)
9.55291811204160e-02	(-3.28409499996227e+01dB,-1.23235421776014e+02°)
9.77543415988406e-02	(-3.22412768118947e+01dB,-1.24035372414817e+02°)
1.00031332723113e-01	(-3.16416592659283e+01dB,-1.24855961722439e+02°)
1.02361361784066e-01	(-3.10421056013767e+01dB,-1.25697830943933e+02°)
1.04745664193949e-01	(-3.04426252428624e+01dB,-1.26561649377142e+02°)
1.07185504141461e-01	(-2.98432289696779e+01dB,-1.27448116079548e+02°)
1.09682175262037e-01	(-2.92439291097237e+01dB,-1.28357961688177e+02°)
1.12237001323752e-01	(-2.86447397610962e+01dB,-1.29291950357028e+02°)
1.14851336929201e-01	(-2.80456770452082e+01dB,-1.30250881815717e+02°)
1.17526568233728e-01	(-2.74467593958407e+01dB,-1.31235593551910e+02°)
1.20264113680379e-01	(-2.68480078891082e+01dB,-1.32246963118556e+02°)
1.23065424751988e-01	(-2.62494466199687e+01dB,-1.33285910564896e+02°)
1.25931986740764e-01	(-2.56511031316243e+01dB,-1.34353400987504e+02°)
1.28865319535817e-01	(-2.50530089049522e+01dB,-1.35450447194162e+02°)
1.31866978429021e-01	(-2.44551999159677e+01dB,-1.36578112468900e+02°)
1.34938554939655e-01	(-2.38577172702571e+01dB,-1.37737513420934e+02°)
1.38081677658240e-01	(-2.32606079243177e+01dB,-1.38929822893160e+02°)
1.41298013110047e-01	(-2.26639255047992e+01dB,-1.40156272897146e+02°)
1.44589266638705e-01	(-2.20677312377275e+01dB,-1.41418157530695e+02°)
1.47957183310401e-01	(-2.14720950008882e+01dB,-1.42716835820833e+02°)
1.51403548839132e-01	(-2.08770965136029e+01dB,-1.44053734418882e+02°)
1.54930190533521e-01	(-2.02828266790896e+01dB,-1.45430350054762e+02°)
1.58538978265674e-01	(-1.96893890953711e+01dB,-1.46848251634178e+02°)
1.62231825462615e-01	(-1.90969017511737e+01dB,-1.48309081834410e+02°)
1.66010690120808e-01	(-1.85054989232885e+01dB,-1.49814558021403e+02°)
1.69877575844315e-01	(-1.79153332912514e+01dB,-1.51366472272270e+02°)
1.73834532907130e-01	(-1.73265782836920e+01dB,-1.52966690242723e+02°)
1.77883659340264e-01	(-1.67394306679824e+01dB,-1.54617148568156e+02°)
1.82027102044149e-01	(-1.61541133905016e+01dB,-1.56319850430165e+02°)
1.86267057926951e-01	(-1.55708786684437e+01dB,-1.58076858857935e+02°)
1.90605775069402e-01	(-1.49900113250969e+01dB,-1.59890287267434e+02°)
1.95045553916761e-01	(-1.44118323482611e+01dB,-1.61762286673241e+02°)
1.99588748498540e-01	(-1.38367026352890e+01dB,-1.63695028941966e+02°)
2.04237767676642e-01	(-1.32650268674134e+01dB,-1.65690685398291e+02°)
2.08995076422572e-01	(-1.26972574299270e+01dB,-1.67751400052833e+02°)
2.13863197124399e-01	(-1.21338982629292e+01dB,-1.69879256706090e+02°)
2.18844710924155e-01	(-1.15755084895914e+01dB,-1.72076239208752e+02°)
2.23942259086395e-01	(-1.10227056255955e+01dB,-1.74344184242829e+02°)
2.29158544398629e-01	(-1.04761681257854e+01dB,-1.76684726150521e+02°)
2.34496332604375e-01	(-9.93663697444945e+00dB,-1.79099233600395e+02°)
2.39958453869594e-01	(-9.40491597785786e+00dB,1.78411261735258e+02°)
2.45547804283280e-01	(-8.88187037728484e+00dB,1.75846143794185e+02°)
2.51267347393007e-01	(-8.36842337525554e+00dB,1.73205296659332e+02°)
2.57120115776237e-01	(-7.86555016649043e+00dB,1.70489192831649e+02°)
2.63109212648240e-01	(-7.37426909849671e+00dB,1.67698982130270e+02°)
2.69237813507451e-01	(-6.89562966556853e+00dB,1.64836577129817e+02°)
2.75509167819167e-01	(-6.43069717287011e+00dB,1.61904730105728e+02°)
2.81926600738456e-01	(-5.98053409867749e+00dB,1.58907095690037e+02°)
2.88493514873196e-01	(-5.54617842988307e+00dB,1.55848272998756e+02°)
2.95213392088185e-01	(-5.12861953567728e+00dB,1.52733821043448e+02°)
3.02089795351270e-01	(-4.72877245251021e+00dB,1.49570241929178e+02°)
3.09126370622482e-01	(-4.34745174450394e+00dB,1.46364927756989e+02°)
3.16326848787169e-01	(-3.98534633424962e+00dB,1.43126069284513e+02°)
3.23695047634164e-01	(-3.64299682500815e+00dB,1.39862527123436e+02°)
3.31234873880024e-01	(-3.32077682006367e+00dB,1.36583669307966e+02°)
3.38950325240428e-01	(-3.01887956873479e+00dB,1.33299182089806e+02°)
3.46845492549813e-01	(-2.73731093602160e+00dB,1.30018863388649e+02°)
3.54924561930390e-01	(-2.47588923561985e+00dB,1.26752410067782e+02°)
3.63191817011685e-01	(-2.23425193881679e+00dB,1.23509210837155e+02°)
3.71651641201771e-01	(-2.01186874293153e+00dB,1.20298156008648e+02°)
3.80308520011413e-01	(-1.80806002113110e+00dB,1.17127473634028e+02°)
3.89167043432344e-01	(-1.62201933627212e+00dB,1.14004599013154e+02°)
3.98231908370938e-01	(-1.45283851764595e+00dB,1.10936081550171e+02°)
4.07507921138572e-01	(-1.29953377706890e+00dB,1.07927529873001e+02°)
4.16999999999999e-01	(-1.16107146102245e+00dB,1.04983593384507e+02°)
4.26713177781073e-01	(-1.03639226242458e+00dB,1.02107976247204e+02°)
4.36652604537224e-01	(-9.24433004877063e-01dB,9.93034783532931e+01°)
4.46823550284080e-01	(-8.24145420478029e-01dB,9.65720571100118e+01°)
4.57231407791707e-01	(-7.34511633564817e-01dB,9.39149037924083e+01°)
4.67881695443917e-01	(-6.54556312108293e-01dB,9.13325286377746e+01°)
4.78780060164199e-01	(-5.83355642569619e-01dB,8.88248496129559e+01°)
4.89932280409782e-01	(-5.20043419575582e-01dB,8.63912807198759e+01°)
5.01344269235459e-01	(-4.63814622897386e-01dB,8.40308166849893e+01°)
5.13022077428761e-01	(-4.13926889549720e-01dB,8.17421118089530e+01°)
5.24971896718166e-01	(-3.69700288912750e-01dB,7.95235515727860e+01°)
5.37200063056035e-01	(-3.30515784184388e-01dB,7.73733162756743e+01°)
5.49713059978020e-01	(-2.95812723575369e-01dB,7.52894365100461e+01°)
5.62517522040718e-01	(-2.65085657059752e-01dB,7.32698406699293e+01°)
5.75620238339401e-01	(-2.37880724859660e-01dB,7.13123949563375e+01°)
5.89028156107686e-01	(-2.13791816063521e-01dB,6.94149365099796e+01°)
6.02748384401050e-01	(-1.92456652247427e-01dB,6.75753003888622e+01°)
6.16788197866140e-01	(-1.73552912934505e-01dB,6.57913411365978e+01°)
6.31155040597897e-01	(-1.56794487600084e-01dB,6.40609496738015e+01°)
6.45856530086502e-01	(-1.41927912577571e-01dB,6.23820662040439e+01°)
6.60900461256282e-01	(-1.28729030169779e-01dB,6.07526897684112e+01°)
6.76294810598671e-01	(-1.16999890886896e-01dB,5.91708850170209e+01°)
6.92047740401460e-01	(-1.06565907313134e-01dB,5.76347866976892e+01°)
7.08167603076545e-01	(-9.72732589661496e-02dB,5.61426022952943e+01°)
7.24662945588487e-01	(-8.89865410236824e-02dB,5.46926131927356e+01°)
7.41542513986228e-01	(-8.15866453937946e-02dB,5.32831746671731e+01°)
7.58815258040360e-01	(-7.49688598268685e-02dB,5.19127149841088e+01°)
7.76490335988413e-01	(-6.90411692149584e-02dB,5.05797338069750e+01°)
7.94577119390671e-01	(-6.37227425788878e-02dB,4.92828001010125e+01°)
8.13085198099102e-01	(-5.89425892524521e-02dB,4.80205496769541e+01°)
8.32024385342020e-01	(-5.46383682371473e-02dB,4.67916824918378e+01°)
8.51404722927190e-01	(-5.07553354686385e-02dB,4.55949598006056e+01°)
8.71236486566131e-01	(-4.72454146906332e-02dB,4.44292012324275e+01°)
8.91530191322427e-01	(-4.40663786896690e-02dB,4.32932818493811e+01°)
9.12296597186960e-01	(-4.11811287416715e-02dB,4.21861292317340e+01°)
9.33546714782994e-01	(-3.85570612150824e-02dB,4.11067206231511e+01°)
9.55291811204157e-01	(-3.61655113350446e-02dB,4.00540801603090e+01°)
9.77543415988403e-01	(-3.39812651199039e-02dB,3.90272762042877e+01°)
1.00031332723112e+00	(-3.19821314423809e-02dB,3.80254187854368e+01°)
1.02361361784065e+00	(-3.01485670372071e-02dB,3.70476571689257e+01°)
1.04745664193949e+00	(-2.84633480736362e-02dB,3.60931775446753e+01°)
1.07185504141461e+00	(-2.69112826334899e-02dB,3.51612008426482e+01°)
1.09682175262037e+00	(-2.54789590889663e-02dB,3.42509806724040e+01°)
1.12237001323752e+00	(-2.41545259601658e-02dB,3.33618013842696e+01°)
1.14851336929201e+00	(-2.29274993566094e-02dB,3.24929762483482e+01°)
1.17526568233727e+00	(-2.17885945741172e-02dB,3.16438457467849e+01°)
1.20264113680379e+00	(-2.07295788334407e-02dB,3.08137759741796e+01°)
1.23065424751988e+00	(-1.97431425141523e-02dB,3.00021571407066e+01°)
1.25931986740763e+00	(-1.88227865628185e-02dB,2.92084021723420e+01°)
1.28865319535816e+00	(-1.79627240407658e-02dB,2.84319454025588e+01°)
1.31866978429021e+00	(-1.71577940294521e-02dB,2.76722413499069e+01°)
1.34938554939654e+00	(-1.64033863336471e-02dB,2.69287635760206e+01°)
1.38081677658240e+00	(-1.56953756177808e-02dB,2.62010036187781e+01°)
1.41298013110047e+00	(-1.50300637821116e-02dB,2.54884699955454e+01°)
1.44589266638705e+00	(-1.44041295357797e-02dB,2.47906872716778e+01°)
1.47957183310400e+00	(-1.38145842549420e-02dB,2.41071951897035e+01°)
1.51403548839132e+00	(-1.32587333303013e-02dB,2.34375478548700e+01°)
1.54930190533520e+00	(-1.27341423082219e-02dB,2.27813129729927e+01°)
1.58538978265673e+00	(-1.22386072185075e-02dB,2.21380711368034e+01°)
1.62231825462614e+00	(-1.17701285589073e-02dB,2.15074151572422e+01°)
1.66010690120808e+00	(-1.13268884734734e-02dB,2.08889494363794e+01°)
1.69877575844314e+00	(-1.09072307211696e-02dB,2.02822893788826e+01°)
1.73834532907129e+00	(-1.05096430824704e-02dB,1.96870608391646e+01°)
1.77883659340263e+00	(-1.01327418962176e-02dB,1.91028996015542e+01°)
1.82027102044148e+00	(-9.77525845862047e-03dB,1.85294508910261e+01°)
1.86267057926951e+00	(-9.43602705044661e-03dB,1.79663689122119e+01°)
1.90605775069402e+00	(-9.11397438775892e-03dB,1.74133164145815e+01°)
1.95045553916761e+00	(-8.80811031837547e-03dB,1.68699642818465e+01°)
1.99588748498539e+00	(-8.51751960826966e-03dB,1.63359911437845e+01°)
2.04237767676641e+00	(-8.24135468237414e-03dB,1.58110830088201e+01°)
2.08995076422571e+00	(-7.97882920121470e-03dB,1.52949329158261e+01°)
2.13863197124398e+00	(-7.72921237007495e-03dB,1.47872406037285e+01°)
2.18844710924154e+00	(-7.49182389050654e-03dB,1.42877121976027e+01°)
2.23942259086394e+00	(-7.26602947530399e-03dB,1.37960599100546e+01°)
2.29158544398628e+00	(-7.05123685823941e-03dB,1.33120017567681e+01°)
2.34496332604374e+00	(-6.84689223845507e-03dB,1.28352612851881e+01°)
2.39958453869593e+00	(-6.65247710713405e-03dB,1.23655673153872e+01°)
2.45547804283279e+00	(-6.46750541043339e-03dB,1.19026536922321e+01°)
2.51267347393006e+00	(-6.29152100876859e-03dB,1.14462590480387e+01°)
2.57120115776237e+00	(-6.12409539733626e-03dB,1.09961265749586e+01°)
2.63109212648239e+00	(-5.96482565740658e-03dB,1.05520038064013e+01°)
2.69237813507450e+00	(-5.81333261118003e-03dB,1.01136424068433e+01°)
2.75509167819166e+00	(-5.66925915747163e-03dB,9.68079796942600e+00°)
2.81926600738455e+00	(-5.53226876683869e-03dB,9.25322982078362e+00°)
2.88493514873195e+00	(-5.40204411882914e-03dB,8.83070083258562e+00°)
2.95213392088184e+00	(-5.27828586543616e-03dB,8.41297723931111e+00°)
3.02089795351269e+00	(-5.16071150661507e-03dB,7.99982846180804e+00°)
3.09126370622481e+00	(-5.04905436618266e-03dB,7.59102693621914e+00°)
3.16326848787168e+00	(-4.94306265720883e-03dB,7.18634794788501e+00°)
3.23695047634163e+00	(-4.84249862758127e-03dB,6.78556946985958e+00°)
3.31234873880023e+00	(-4.74713777757992e-03dB,6.38847200569701e+00°)
3.38950325240427e+00	(-4.65676814220350e-03dB,5.99483843619021e+00°)
3.46845492549812e+00	(-4.57118963178751e-03dB,5.60445386975994e+00°)
3.54924561930389e+00	(-4.49021342554274e-03dB,5.21710549621196e+00°)
3.63191817011683e+00	(-4.41366141278379e-03dB,4.83258244359546e+00°)
3.71651641201770e+00	(-4.34136567764618e-03dB,4.45067563791051e+00°)
3.80308520011412e+00	(-4.27316802352496e-03dB,4.07117766542569e+00°)
3.89167043432343e+00	(-4.20891953354090e-03dB,3.69388263737946e+00°)
3.98231908370936e+00	(-4.14848016429124e-03dB,3.31858605684901e+00°)
4.07507921138571e+00	(-4.09171837018015e-03dB,2.94508468758105e+00°)
4.16999999999997e+00	(-4.03851075576133e-03dB,2.57317642458663e+00°)
4.26713177781072e+00	(-3.98874175431323e-03dB,2.20266016631165e+00°)
4.36652604537222e+00	(-3.94230333059388e-03dB,1.83333568819956e+00°)
4.46823550284079e+00	(-3.89909470620127e-03dB,1.46500351747095e+00°)
4.57231407791705e+00	(-3.85902210615517e-03dB,1.09746480894838e+00°)
4.67881695443916e+00	(-3.82199852528925e-03dB,7.30521221760802e-01°)
4.78780060164197e+00	(-3.78794351358864e-03dB,3.63974796764433e-01°)
4.89932280409781e+00	(-3.75678297927208e-03dB,-2.37216547857335e-03°)
5.01344269235458e+00	(-3.72844900890667e-03dB,-3.68717226321182e-01°)
5.13022077428760e+00	(-3.70287970385481e-03dB,-7.35257930406570e-01°)
5.24971896718164e+00	(-3.68001903239333e-03dB,-1.10219192695176e+00°)
5.37200063056033e+00	(-3.65981669713142e-03dB,-1.46971709109237e+00°)
5.49713059978018e+00	(-3.64222801722030e-03dB,-1.83803164544266e+00°)
5.62517522040716e+00	(-3.62721382521161e-03dB,-2.20733428202418e+00°)
5.75620238339399e+00	(-3.61474037840154e-03dB,-2.57782428471915e+00°)
5.89028156107685e+00	(-3.60477928447374e-03dB,-2.94970165240530e+00°)
6.02748384401048e+00	(-3.59730744173500e-03dB,-3.32316722293333e+00°)
6.16788197866138e+00	(-3.59230699402640e-03dB,-3.69842279810943e+00°)
6.31155040597895e+00	(-3.58976530051067e-03dB,-4.07567126985092e+00°)
6.45856530086500e+00	(-3.58967492120543e-03dB,-4.45511674768772e+00°)
6.60900461256280e+00	(-3.59203361834078e-03dB,-4.83696468778657e+00°)
6.76294810598669e+00	(-3.59684437493533e-03dB,-5.22142202368324e+00°)
6.92047740401458e+00	(-3.60411543111629e-03dB,-5.60869729891392e+00°)
7.08167603076542e+00	(-3.61386033970265e-03dB,-5.99900080174498e+00°)
7.24662945588485e+00	(-3.62609804251524e-03dB,-6.39254470221074e+00°)
7.41542513986226e+00	(-3.64085296898442e-03dB,-6.78954319167723e+00°)
7.58815258040358e+00	(-3.65815515949728e-03dB,-7.19021262516301e+00°)
7.76490335988410e+00	(-3.67804041559656e-03dB,-7.59477166665841e+00°)
7.94577119390668e+00	(-3.70055048022493e-03dB,-8.00344143770089e+00°)
8.13085198099099e+00	(-3.72573325128514e-03dB,-8.41644566947701e+00°)
8.32024385342017e+00	(-3.75364303255872e-03dB,-8.83401085873913e+00°)
8.51404722927188e+00	(-3.78434082645129e-03dB,-9.25636642784325e+00°)
8.71236486566128e+00	(-3.81789467417401e-03dB,-9.68374488923457e+00°)
8.91530191322424e+00	(-3.85438004943747e-03dB,-1.01163820147280e+01°)
9.12296597186957e+00	(-3.89388031299030e-03dB,-1.05545170099572e+01°)
9.33546714782991e+00	(-3.93648723617254e-03dB,-1.09983926943882e+01°)
9.55291811204154e+00	(-3.98230160362643e-03dB,-1.14482556873283e+01°)
9.77543415988400e+00	(-4.03143390590772e-03dB,-1.19043566003844e+01°)
1.00031332723112e+01	(-4.08400513533262e-03dB,-1.23669502368666e+01°)
1.02361361784065e+01	(-4.14014769985246e-03dB,-1.28362957986668e+01°)
1.04745664193949e+01	(-4.20000647244705e-03dB,-1.33126571011820e+01°)
1.07185504141461e+01	(-4.26373999610360e-03dB,-1.37963027968988e+01°)
1.09682175262037e+01	(-4.33152186716899e-03dB,-1.42875066083049e+01°)
1.12237001323752e+01	(-4.40354232418195e-03dB,-1.47865475708428e+01°)
1.14851336929201e+01	(-4.48001007274512e-03dB,-1.52937102866834e+01°)
1.17526568233727e+01	(-4.56115438199443e-03dB,-1.58092851901580e+01°)
1.20264113680379e+01	(-4.64722749356603e-03dB,-1.63335688257558e+01°)
1.23065424751987e+01	(-4.73850739046546e-03dB,-1.68668641396719e+01°)
1.25931986740763e+01	(-4.83530098000435e-03dB,-1.74094807859692e+01°)
1.28865319535816e+01	(-4.93794775386358e-03dB,-1.79617354485090e+01°)
1.31866978429020e+01	(-5.04682399729482e-03dB,-1.85239521799024e+01°)
1.34938554939654e+01	(-5.16234763086206e-03dB,-1.90964627588377e+01°)
1.38081677658239e+01	(-5.28498378088152e-03dB,-1.96796070672552e+01°)
1.41298013110046e+01	(-5.41525118856776e-03dB,-2.02737334889664e+01°)
1.44589266638705e+01	(-5.55372958566856e-03dB,-2.08791993314442e+01°)
1.47957183310400e+01	(-5.70106818261932e-03dB,-2.14963712726628e+01°)
1.51403548839131e+01	(-5.85799543811636e-03dB,-2.21256258350185e+01°)
1.54930190533520e+01	(-6.02533030410548e-03dB,-2.27673498885340e+01°)
1.58538978265673e+01	(-6.20399516918204e-03dB,-2.34219411857321e+01°)
1.62231825462614e+01	(-6.39503075774563e-03dB,-2.40898089307596e+01°)
1.66010690120807e+01	(-6.59961327996604e-03dB,-2.47713743855528e+01°)
1.69877575844314e+01	(-6.81907417245919e-03dB,-2.54670715160595e+01°)
1.73834532907128e+01	(-7.05492282042203e-03dB,-2.61773476817717e+01°)
1.77883659340263e+01	(-7.30887271013492e-03dB,-2.69026643720722e+01°)
1.82027102044148e+01	(-7.58287152798765e-03dB,-2.76434979931663e+01°)
1.86267057926950e+01	(-7.87913579906665e-03dB,-2.84003407096440e+01°)
1.90605775069401e+01	(-8.20019074620418e-03dB,-2.91737013450058e+01°)
1.95045553916760e+01	(-8.54891615195088e-03dB,-2.99641063457781e+01°)
1.99588748498539e+01	(-8.92859912111405e-03dB,-3.07721008141429e+01°)
2.04237767676640e+01	(-9.34299477435137e-03dB,-3.15982496142996e+01°)
2.08995076422571e+01	(-9.79639605488011e-03dB,-3.24431385580663e+01°)
2.13863197124397e+01	(-1.02937140035654e-02dB,-3.33073756754966e+01°)
2.18844710924153e+01	(-1.08405700559178e-02dB,-3.41915925765283e+01°)
2.23942259086393e+01	(-1.14434021401190e-02dB,-3.50964459098792e+01°)
2.29158544398627e+01	(-1.21095866133366e-02dB,-3.60226189255398e+01°)
2.34496332604374e+01	(-1.28475783664755e-02dB,-3.69708231472625e+01°)
2.39958453869592e+01	(-1.36670717610602e-02dB,-3.79418001613833e+01°)
2.45547804283278e+01	(-1.45791854408230e-02dB,-3.89363235280919e+01°)
2.51267347393005e+01	(-1.55966744882765e-02dB,-3.99552008208546e+01°)
2.57120115776236e+01	(-1.67341738819666e-02dB,-4.09992757990259e+01°)
2.63109212648238e+01	(-1.80084777549598e-02dB,-4.20694307176911e+01°)
2.69237813507449e+01	(-1.94388595685308e-02dB,-4.31665887773847e+01°)
2.75509167819165e+01	(-2.10474390007892e-02dB,-4.42917167144151e+01°)
2.81926600738454e+01	(-2.28596021133545e-02dB,-4.54458275299757e+01°)
2.88493514873194e+01	(-2.49044822050237e-02dB,-4.66299833528793e+01°)
2.95213392088183e+01	(-2.72155096917470e-02dB,-4.78452984264281e+01°)
3.02089795351268e+01	(-2.98310403658427e-02dB,-4.90929422044194e+01°)
