Freq.	V(out)
4.17000000000000e-02	(-6.48667924579026e+01dB,-9.79071905011892e+01°)
4.26713177781074e-02	(-6.42653256739970e+01dB,-9.80922949521209e+01°)
4.36652604537225e-02	(-6.36637894478006e+01dB,-9.82817794765936e+01°)
4.46823550284082e-02	(-6.30621804771557e+01dB,-9.84757510480261e+01°)
4.57231407791708e-02	(-6.24604953015786e+01dB,-9.86743194977400e+01°)
4.67881695443919e-02	(-6.18587302945582e+01dB,-9.88775976090935e+01°)
4.78780060164200e-02	(-6.12568816554729e+01dB,-9.90857012159510e+01°)
4.89932280409784e-02	(-6.06549454011037e+01dB,-9.92987493057653e+01°)
5.01344269235461e-02	(-6.00529173567258e+01dB,-9.95168641275687e+01°)
5.13022077428763e-02	(-5.94507931467554e+01dB,-9.97401713051921e+01°)
5.24971896718168e-02	(-5.88485681849295e+01dB,-9.99687999560620e+01°)
5.37200063056037e-02	(-5.82462376639963e+01dB,-1.00202882815944e+02°)
5.49713059978022e-02	(-5.76437965448893e+01dB,-1.00442556370044e+02°)
5.62517522040719e-02	(-5.70412395453611e+01dB,-1.00687960990891e+02°)
5.75620238339403e-02	(-5.64385611280484e+01dB,-1.00939241083501e+02°)
5.89028156107688e-02	(-5.58357554879411e+01dB,-1.01196545238299e+02°)
6.02748384401052e-02	(-5.52328165392245e+01dB,-1.01460026392391e+02°)
6.16788197866142e-02	(-5.46297379014651e+01dB,-1.01729841999763e+02°)
6.31155040597898e-02	(-5.40265128851064e+01dB,-1.02006154211087e+02°)
6.45856530086504e-02	(-5.34231344762430e+01dB,-1.02289130063816e+02°)
6.60900461256284e-02	(-5.28195953206366e+01dB,-1.02578941683377e+02°)
6.76294810598673e-02	(-5.22158877069402e+01dB,-1.02875766496286e+02°)
6.92047740401462e-02	(-5.16120035490915e+01dB,-1.03179787456097e+02°)
7.08167603076547e-02	(-5.10079343678392e+01dB,-1.03491193283216e+02°)
7.24662945588489e-02	(-5.04036712713630e+01dB,-1.03810178719640e+02°)
7.41542513986230e-02	(-4.97992049349475e+01dB,-1.04136944799837e+02°)
7.58815258040362e-02	(-4.91945255796713e+01dB,-1.04471699139056e+02°)
7.76490335988415e-02	(-4.85896229500698e+01dB,-1.04814656240510e+02°)
7.94577119390673e-02	(-4.79844862907335e+01dB,-1.05166037822962e+02°)
8.13085198099104e-02	(-4.73791043218018e+01dB,-1.05526073170462e+02°)
8.32024385342022e-02	(-4.67734652133146e+01dB,-1.05894999506063e+02°)
8.51404722927193e-02	(-4.61675565583872e+01dB,-1.06273062391605e+02°)
8.71236486566134e-02	(-4.55613653451730e+01dB,-1.06660516155791e+02°)
8.91530191322430e-02	(-4.49548779275879e+01dB,-1.07057624353048e+02°)
9.12296597186962e-02	(-4.43480799947698e+01dB,-1.07464660255881e+02°)
9.33546714782997e-02	(-4.37409565392586e+01dB,-1.07881907383707e+02°)
9.55291811204160e-02	(-4.31334918238850e+01dB,-1.08309660071469e+02°)
9.77543415988406e-02	(-4.25256693473725e+01dB,-1.08748224081645e+02°)
1.00031332723113e-01	(-4.19174718086668e+01dB,-1.09197917263647e+02°)
1.02361361784066e-01	(-4.13088810700244e+01dB,-1.09659070265019e+02°)
1.04745664193949e-01	(-4.06998781189134e+01dB,-1.10132027299285e+02°)
1.07185504141461e-01	(-4.00904430288026e+01dB,-1.10617146975825e+02°)
1.09682175262037e-01	(-3.94805549189474e+01dB,-1.11114803197690e+02°)
1.12237001323752e-01	(-3.88701919133168e+01dB,-1.11625386133933e+02°)
1.14851336929201e-01	(-3.82593310988501e+01dB,-1.12149303273687e+02°)
1.17526568233728e-01	(-3.76479484832874e+01dB,-1.12686980570014e+02°)
1.20264113680379e-01	(-3.70360189528819e+01dB,-1.13238863682417e+02°)
1.23065424751988e-01	(-3.64235162303801e+01dB,-1.13805419327829e+02°)
1.25931986740764e-01	(-3.58104128337521e+01dB,-1.14387136750986e+02°)
1.28865319535817e-01	(-3.51966800362652e+01dB,-1.14984529326251e+02°)
1.31866978429021e-01	(-3.45822878286314e+01dB,-1.15598136304254e+02°)
1.34938554939655e-01	(-3.39672048841208e+01dB,-1.16228524718180e+02°)
1.38081677658240e-01	(-3.33513985277294e+01dB,-1.16876291466117e+02°)
1.41298013110047e-01	(-3.27348347107224e+01dB,-1.17542065587659e+02°)
1.44589266638705e-01	(-3.21174779921539e+01dB,-1.18226510754901e+02°)
1.47957183310401e-01	(-3.14992915292986e+01dB,-1.18930328000121e+02°)
1.51403548839132e-01	(-3.08802370793340e+01dB,-1.19654258704785e+02°)
1.54930190533521e-01	(-3.02602750150868e+01dB,-1.20399087877087e+02°)
1.58538978265674e-01	(-2.96393643582376e+01dB,-1.21165647748037e+02°)
1.62231825462615e-01	(-2.90174628340590e+01dB,-1.21954821719110e+02°)
1.66010690120808e-01	(-2.83945269525895e+01dB,-1.22767548697700e+02°)
1.69877575844315e-01	(-2.77705121221286e+01dB,-1.23604827860053e+02°)
1.73834532907130e-01	(-2.71453728021156e+01dB,-1.24467723884908e+02°)
1.77883659340264e-01	(-2.65190627038651e+01dB,-1.25357372704727e+02°)
1.82027102044149e-01	(-2.58915350493201e+01dB,-1.26274987825023e+02°)
1.86267057926951e-01	(-2.52627428999954e+01dB,-1.27221867265794e+02°)
1.90605775069402e-01	(-2.46326395706965e+01dB,-1.28199401182102e+02°)
1.95045553916761e-01	(-2.40011791454722e+01dB,-1.29209080223299e+02°)
1.99588748498540e-01	(-2.33683171166842e+01dB,-1.30252504691662e+02°)
2.04237767676642e-01	(-2.27340111721582e+01dB,-1.31331394560851e+02°)
2.08995076422572e-01	(-2.20982221602184e+01dB,-1.32447600411741e+02°)
2.13863197124399e-01	(-2.14609152681404e+01dB,-1.33603115336867e+02°)
2.18844710924155e-01	(-2.08220614563107e+01dB,-1.34800087853376e+02°)
2.23942259086395e-01	(-2.01816391983095e+01dB,-1.36040835846323e+02°)
2.29158544398629e-01	(-1.95396365863647e+01dB,-1.37327861536684e+02°)
2.34496332604375e-01	(-1.88960538723006e+01dB,-1.38663867428521e+02°)
2.39958453869594e-01	(-1.82509065262892e+01dB,-1.40051773132878e+02°)
2.45547804283280e-01	(-1.76042289094238e+01dB,-1.41494732886976e+02°)
2.51267347393007e-01	(-1.69560786712367e+01dB,-1.42996153478950e+02°)
2.57120115776237e-01	(-1.63065419994200e+01dB,-1.44559712142155e+02°)
2.63109212648240e-01	(-1.56557398654917e+01dB,-1.46189373788193e+02°)
2.69237813507451e-01	(-1.50038354257512e+01dB,-1.47889406691312e+02°)
2.75509167819167e-01	(-1.43510427496330e+01dB,-1.49664395403846e+02°)
2.81926600738456e-01	(-1.36976370544293e+01dB,-1.51519249256293e+02°)
2.88493514873196e-01	(-1.30439666217731e+01dB,-1.53459204259846e+02°)
2.95213392088185e-01	(-1.23904665507306e+01dB,-1.55489815569363e+02°)
3.02089795351270e-01	(-1.17376744557432e+01dB,-1.57616936873626e+02°)
3.09126370622482e-01	(-1.10862481328532e+01dB,-1.59846682164672e+02°)
3.16326848787169e-01	(-1.04369850790817e+01dB,-1.62185364332171e+02°)
3.23695047634164e-01	(-9.79084353882772e+00dB,-1.64639404008523e+02°)
3.31234873880024e-01	(-9.14896444721847e+00dB,-1.67215201195772e+02°)
3.38950325240428e-01	(-8.51269322439695e+00dB,-1.69918961668081e+02°)
3.46845492549813e-01	(-7.88359983534656e+00dB,-1.72756470310402e+02°)
3.54924561930390e-01	(-7.26349487344479e+00dB,-1.75732804903888e+02°)
3.63191817011685e-01	(-6.65443869159678e+00dB,-1.78851986996042e+02°)
3.71651641201771e-01	(-6.05873988269730e+00dB,1.77883427962211e+02°)
3.80308520011413e-01	(-5.47893886035017e+00dB,1.74472810549533e+02°)
3.89167043432344e-01	(-4.91777214725567e+00dB,1.70917945175712e+02°)
3.98231908370938e-01	(-4.37811353910355e+00dB,1.67223509617368e+02°)
4.07507921138572e-01	(-3.86288987530582e+00dB,1.63397495679136e+02°)
4.16999999999999e-01	(-3.37497190502239e+00dB,1.59451508623280e+02°)
4.26713177781073e-01	(-2.91704461697825e+00dB,1.55400878423763e+02°)
4.36652604537224e-01	(-2.49146592791613e+00dB,1.51264523085076e+02°)
4.46823550284080e-01	(-2.10012686741283e+00dB,1.47064526242595e+02°)
4.57231407791707e-01	(-1.74432911957312e+00dB,1.42825427408542e+02°)
4.67881695443917e-01	(-1.42469581416919e+00dB,1.38573267951189e+02°)
4.78780060164199e-01	(-1.14112819657859e+00dB,1.34334479158127e+02°)
4.89932280409782e-01	(-8.92814603247938e-01dB,1.30134728909932e+02°)
5.01344269235459e-01	(-6.78290379160532e-01dB,1.25997851656563e+02°)
5.13022077428761e-01	(-4.95539925401058e-01dB,1.21944970033875e+02°)
5.24971896718166e-01	(-3.42126761414509e-01dB,1.17993880572168e+02°)
5.37200063056035e-01	(-2.15335364091218e-01dB,1.14158730875860e+02°)
5.49713059978020e-01	(-1.12309605334059e-01dB,1.10449972921380e+02°)
5.62517522040718e-01	(-3.01759975420795e-02dB,1.06874545454175e+02°)
5.75620238339401e-01	(3.38555744029025e-02dB,1.03436221704137e+02°)
5.89028156107686e-01	(8.24165683062416e-02dB,1.00136055945712e+02°)
6.02748384401050e-01	(1.17929354078130e-01dB,9.69728700065808e+01°)
6.16788197866140e-01	(1.42578704462984e-01dB,9.39437339631596e+01°)
6.31155040597897e-01	(1.58301083759002e-01dB,9.10444098462811e+01°)
6.45856530086502e-01	(1.66787327070126e-01dB,8.82697404354534e+01°)
6.60900461256282e-01	(1.69494616700161e-01dB,8.56139757390702e+01°)
6.76294810598671e-01	(1.67664294572615e-01dB,8.30710371932721e+01°)
6.92047740401460e-01	(1.62342790106048e-01dB,8.06347242603688e+01°)
7.08167603076545e-01	(1.54403657963179e-01dB,7.82988705548831e+01°)
7.24662945588487e-01	(1.44569338992613e-01dB,7.60574575083156e+01°)
7.41542513986228e-01	(1.33431754521592e-01dB,7.39046934622295e+01°)
7.58815258040360e-01	(1.21471220057049e-01dB,7.18350653864702e+01°)
7.76490335988413e-01	(1.09073434387616e-01dB,6.98433694604088e+01°)
7.94577119390671e-01	(9.65444841298262e-02dB,6.79247257271223e+01°)
8.13085198099102e-01	(8.41239220565839e-02dB,6.60745810490827e+01°)
8.32024385342020e-01	(7.19960477773973e-02dB,6.42887037184471e+01°)
8.51404722927190e-01	(6.02995558792759e-02dB,6.25631723282796e+01°)
8.71236486566131e-01	(4.91357305397008e-02dB,6.08943608942566e+01°)
8.91530191322427e-01	(3.85753650323222e-02dB,5.92789217192761e+01°)
9.12296597186960e-01	(2.86645752560343e-02dB,5.77137671003946e+01°)
9.33546714782994e-01	(1.94296624073662e-02dB,5.61960506718293e+01°)
9.55291811204157e-01	(1.08811638268730e-02dB,5.47231489433044e+01°)
9.77543415988403e-01	(3.01721456470441e-03dB,5.32926434155079e+01°)
1.00031332723112e+00	(-4.17367365618859e-03dB,5.19023035217125e+01°)
1.02361361784065e+00	(-1.07103240852855e-02dB,5.05500705466784e+01°)
1.04745664193949e+00	(-1.66170184400906e-02dB,4.92340426027251e+01°)
1.07185504141461e+00	(-2.19219652017898e-02dB,4.79524606919240e+01°)
1.09682175262037e+00	(-2.66560558790268e-02dB,4.67036958477145e+01°)
1.12237001323752e+00	(-3.08518612312409e-02dB,4.54862373250040e+01°)
1.14851336929201e+00	(-3.45428270088086e-02dB,4.42986817919976e+01°)
1.17526568233727e+00	(-3.77626352114624e-02dB,4.31397234673556e+01°)
1.20264113680379e+00	(-4.05447023366163e-02dB,4.20081451410771e+01°)
1.23065424751988e+00	(-4.29217907107313e-02dB,4.09028100154791e+01°)
1.25931986740763e+00	(-4.49257128971714e-02dB,3.98226543028205e+01°)
1.28865319535816e+00	(-4.65871124558005e-02dB,3.87666805177952e+01°)
1.31866978429021e+00	(-4.79353070869116e-02dB,3.77339514057788e+01°)
1.34938554939654e+00	(-4.89981825100070e-02dB,3.67235844509683e+01°)
1.38081677658240e+00	(-4.98021273697590e-02dB,3.57347469121435e+01°)
1.41298013110047e+00	(-5.03720010923740e-02dB,3.47666513374933e+01°)
1.44589266638705e+00	(-5.07311279809101e-02dB,3.38185515136734e+01°)
1.47957183310400e+00	(-5.09013119836944e-02dB,3.28897388078879e+01°)
1.51403548839132e+00	(-5.09028675288430e-02dB,3.19795388652669e+01°)
1.54930190533520e+00	(-5.07546626216035e-02dB,3.10873086270961e+01°)
1.58538978265673e+00	(-5.04741710736899e-02dB,3.02124336385411e+01°)
1.62231825462614e+00	(-5.00775312976266e-02dB,2.93543256173690e+01°)
1.66010690120808e+00	(-4.95796095692513e-02dB,2.85124202578195e+01°)
1.69877575844314e+00	(-4.89940660561680e-02dB,2.76861752462101e+01°)
1.73834532907129e+00	(-4.83334222384985e-02dB,2.68750684670938e+01°)
1.77883659340263e+00	(-4.76091286223564e-02dB,2.60785963808227e+01°)
1.82027102044148e+00	(-4.68316318755798e-02dB,2.52962725552330e+01°)
1.86267057926951e+00	(-4.60104407045905e-02dB,2.45276263358506e+01°)
1.90605775069402e+00	(-4.51541899492872e-02dB,2.37722016405560e+01°)
1.95045553916761e+00	(-4.42707025026642e-02dB,2.30295558660338e+01°)
1.99588748498539e+00	(-4.33670487699329e-02dB,2.22992588945928e+01°)
2.04237767676641e+00	(-4.24496034692988e-02dB,2.15808921910836e+01°)
2.08995076422571e+00	(-4.15240996490371e-02dB,2.08740479806666e+01°)
2.13863197124398e+00	(-4.05956798536177e-02dB,2.01783284991169e+01°)
2.18844710924154e+00	(-3.96689444191243e-02dB,1.94933453081900e+01°)
2.23942259086394e+00	(-3.87479969147178e-02dB,1.88187186693294e+01°)
2.29158544398628e+00	(-3.78364867777103e-02dB,1.81540769696802e+01°)
2.34496332604374e+00	(-3.69376492116445e-02dB,1.74990561949869e+01°)
2.39958453869593e+00	(-3.60543424347838e-02dB,1.68532994445090e+01°)
2.45547804283279e+00	(-3.51890823788375e-02dB,1.62164564835833e+01°)
2.51267347393006e+00	(-3.43440749471664e-02dB,1.55881833299140e+01°)
2.57120115776237e+00	(-3.35212459471164e-02dB,1.49681418700718e+01°)
2.63109212648239e+00	(-3.27222688152265e-02dB,1.43559995030479e+01°)
2.69237813507450e+00	(-3.19485902542761e-02dB,1.37514288080324e+01°)
2.75509167819166e+00	(-3.12014539023317e-02dB,1.31541072338826e+01°)
2.81926600738455e+00	(-3.04819221505289e-02dB,1.25637168080041e+01°)
2.88493514873195e+00	(-2.97908962252867e-02dB,1.19799438626089e+01°)
2.95213392088184e+00	(-2.91291346458473e-02dB,1.14024787765215e+01°)
3.02089795351269e+00	(-2.84972701646376e-02dB,1.08310157308963e+01°)
3.09126370622481e+00	(-2.78958252933112e-02dB,1.02652524773776e+01°)
3.16326848787168e+00	(-2.73252265120381e-02dB,9.70489011738732e+00°)
3.23695047634163e+00	(-2.67858172551259e-02dB,9.14963289135860e+00°)
3.31234873880023e+00	(-2.62778697602802e-02dB,8.59918797685880e+00°)
3.38950325240427e+00	(-2.58015958641821e-02dB,8.05326529465097e+00°)
3.46845492549812e+00	(-2.53571568209335e-02dB,7.51157732184178e+00°)
3.54924561930389e+00	(-2.49446722160811e-02dB,6.97383891134960e+00°)
3.63191817011683e+00	(-2.45642280423175e-02dB,6.43976711700374e+00°)
3.71651641201770e+00	(-2.42158839990901e-02dB,5.90908102365491e+00°)
3.80308520011412e+00	(-2.38996800732445e-02dB,5.38150158173741e+00°)
3.89167043432343e+00	(-2.36156424527616e-02dB,4.85675144577762e+00°)
3.98231908370936e+00	(-2.33637888214822e-02dB,4.33455481639212e+00°)
4.07507921138571e+00	(-2.31441330782702e-02dB,3.81463728535943e+00°)
4.16999999999997e+00	(-2.29566895195566e-02dB,3.29672568338825e+00°)
4.26713177781072e+00	(-2.28014765203645e-02dB,2.78054793023592e+00°)
4.36652604537222e+00	(-2.26785197447544e-02dB,2.26583288685999e+00°)
4.46823550284079e+00	(-2.25878549129337e-02dB,1.75231020931021e+00°)
4.57231407791705e+00	(-2.25295301482584e-02dB,1.23971020408817e+00°)
4.67881695443916e+00	(-2.25036079239352e-02dB,7.27763684720299e-01°)
4.78780060164197e+00	(-2.25101666257566e-02dB,2.16201829303574e-01°)
4.89932280409781e+00	(-2.25493017432908e-02dB,-2.95243961204713e-01°)
5.01344269235458e+00	(-2.26211266988864e-02dB,-8.06842204172979e-01°)
5.13022077428760e+00	(-2.27257733205593e-02dB,-1.31886147617207e+00°)
5.24971896718164e+00	(-2.28633919607614e-02dB,-1.83157055375161e+00°)
5.37200063056033e+00	(-2.30341512607879e-02dB,-2.34523855432687e+00°)
5.49713059978018e+00	(-2.32382375560648e-02dB,-2.86013507738564e+00°)
5.62517522040716e+00	(-2.34758539148559e-02dB,-3.37653034623104e+00°)
5.75620238339399e+00	(-2.37472187996101e-02dB,-3.89469535048102e+00°)
5.89028156107685e+00	(-2.40525643359401e-02dB,-4.41490198955529e+00°)
6.02748384401048e+00	(-2.43921341714965e-02dB,-4.93742321739271e+00°)
6.16788197866138e+00	(-2.47661809028960e-02dB,-5.46253318865696e+00°)
6.31155040597895e+00	(-2.51749630451797e-02dB,-5.99050740670577e+00°)
6.45856530086500e+00	(-2.56187415144824e-02dB,-6.52162287362221e+00°)
6.60900461256280e+00	(-2.60977755907269e-02dB,-7.05615824263010e+00°)
6.76294810598669e+00	(-2.66123183228187e-02dB,-7.59439397324644e+00°)
6.92047740401458e+00	(-2.71626113345076e-02dB,-8.13661248955583e+00°)
7.08167603076542e+00	(-2.77488789850843e-02dB,-8.68309834203164e+00°)
7.24662945588485e+00	(-2.83713218341186e-02dB,-9.23413837337224e+00°)
7.41542513986226e+00	(-2.90301093546083e-02dB,-9.79002188886981e+00°)
7.58815258040358e+00	(-2.97253718346782e-02dB,-1.03510408318855e+01°)
7.76490335988410e+00	(-3.04571914019297e-02dB,-1.09174899650688e+01°)
7.94577119390668e+00	(-3.12255921004413e-02dB,-1.14896670580294e+01°)
8.13085198099099e+00	(-3.20305289442500e-02dB,-1.20678730822505e+01°)
8.32024385342017e+00	(-3.28718758662510e-02dB,-1.26524124141225e+01°)
8.51404722927188e+00	(-3.37494124758733e-02dB,-1.32435930470765e+01°)
8.71236486566128e+00	(-3.46628095334691e-02dB,-1.38417268139111e+01°)
8.91530191322424e+00	(-3.56116130439110e-02dB,-1.44471296205310e+01°)
9.12296597186957e+00	(-3.65952268668018e-02dB,-1.50601216924586e+01°)
9.33546714782991e+00	(-3.76128937353875e-02dB,-1.56810278356381e+01°)
9.55291811204154e+00	(-3.86636745719484e-02dB,-1.63101777132261e+01°)
9.77543415988400e+00	(-3.97464259829894e-02dB,-1.69479061402627e+01°)
1.00031332723112e+01	(-4.08597758140976e-02dB,-1.75945533983345e+01°)
1.02361361784065e+01	(-4.20020966416663e-02dB,-1.82504655725872e+01°)
1.04745664193949e+01	(-4.31714770772253e-02dB,-1.89159949137174e+01°)
1.07185504141461e+01	(-4.43656907598419e-02dB,-1.95915002278795e+01°)
1.09682175262037e+01	(-4.55821629138546e-02dB,-2.02773472977787e+01°)
1.12237001323752e+01	(-4.68179343529094e-02dB,-2.09739093386008e+01°)
1.14851336929201e+01	(-4.80696228179419e-02dB,-2.16815674928462e+01°)
1.17526568233727e+01	(-4.93333815466988e-02dB,-2.24007113686022e+01°)
1.20264113680379e+01	(-5.06048549857331e-02dB,-2.31317396263040e+01°)
1.23065424751987e+01	(-5.18791315755128e-02dB,-2.38750606196093e+01°)
1.25931986740763e+01	(-5.31506935626403e-02dB,-2.46310930966500e+01°)
1.28865319535816e+01	(-5.44133638259030e-02dB,-2.54002669686280e+01°)
1.31866978429020e+01	(-5.56602497420154e-02dB,-2.61830241535123e+01°)
1.34938554939654e+01	(-5.68836841674474e-02dB,-2.69798195034564e+01°)
1.38081677658239e+01	(-5.80751636746177e-02dB,-2.77911218255214e+01°)
1.41298013110046e+01	(-5.92252842570243e-02dB,-2.86174150063538e+01°)
1.44589266638705e+01	(-6.03236748113602e-02dB,-2.94591992526445e+01°)
1.47957183310400e+01	(-6.13589288181131e-02dB,-3.03169924604922e+01°)
1.51403548839131e+01	(-6.23185347801119e-02dB,-3.11913317282367e+01°)
1.54930190533520e+01	(-6.31888061445185e-02dB,-3.20827750289007e+01°)
1.58538978265673e+01	(-6.39548116342582e-02dB,-3.29919030601253e+01°)
1.62231825462614e+01	(-6.46003071558559e-02dB,-3.39193212913945e+01°)
1.66010690120807e+01	(-6.51076707394103e-02dB,-3.48656622304404e+01°)
1.69877575844314e+01	(-6.54578423127125e-02dB,-3.58315879330123e+01°)
1.73834532907128e+01	(-6.56302705259682e-02dB,-3.68177927826942e+01°)
1.77883659340263e+01	(-6.56028693386111e-02dB,-3.78250065701652e+01°)
1.82027102044148e+01	(-6.53519876722881e-02dB,-3.88539979042287e+01°)
1.86267057926950e+01	(-6.48523961402045e-02dB,-3.99055779900850e+01°)
1.90605775069401e+01	(-6.40772957079269e-02dB,-4.09806048136682e+01°)
1.95045553916760e+01	(-6.29983541476937e-02dB,-4.20799877744044e+01°)
1.99588748498539e+01	(-6.15857773501467e-02dB,-4.32046928124162e+01°)
2.04237767676640e+01	(-5.98084239924485e-02dB,-4.43557480799401e+01°)
2.08995076422571e+01	(-5.76339737712828e-02dB,-4.55342502104383e+01°)
2.13863197124397e+01	(-5.50291614490070e-02dB,-4.67413712424204e+01°)
2.18844710924153e+01	(-5.19600913913019e-02dB,-4.79783662581371e+01°)
2.23942259086393e+01	(-4.83926501674603e-02dB,-4.92465817997716e+01°)
2.29158544398627e+01	(-4.42930382261780e-02dB,-5.05474651271131e+01°)
2.34496332604374e+01	(-3.96284457459848e-02dB,-5.18825743803990e+01°)
2.39958453869592e+01	(-3.43679026028213e-02dB,-5.32535897092791e+01°)
2.45547804283278e+01	(-2.84833381218837e-02dB,-5.46623254226558e+01°)
2.51267347393005e+01	(-2.19508930222706e-02dB,-5.61107432030985e+01°)
2.57120115776236e+01	(-1.47525338647762e-02dB,-5.76009664117718e+01°)
2.63109212648238e+01	(-6.87802951695275e-03dB,-5.91352954829174e+01°)
2.69237813507449e+01	(1.67264021804508e-03dB,-6.07162243676866e+01°)
2.75509167819165e+01	(1.08863615129961e-02dB,-6.23464579313721e+01°)
2.81926600738454e+01	(2.07333529938228e-02dB,-6.40289301304650e+01°)
2.88493514873194e+01	(3.11629107168119e-02dB,-6.57668226896339e+01°)
2.95213392088183e+01	(4.20983044076615e-02dB,-6.75635838550804e+01°)
3.02089795351268e+01	(5.34306811344410e-02dB,-6.94229466091809e+01°)
