Freq.	V(out)
2.50000000000000e+000	(1.35076349306510e-001dB,-1.67378412503002e+001°)
2.55823248070189e+000	(1.41144303211448e-001dB,-1.71404131074856e+001°)
2.61782137012725e+000	(1.47468976784712e-001dB,-1.75532546997588e+001°)
2.67879826309402e+000	(1.54059602415931e-001dB,-1.79766670396164e+001°)
2.74119549035796e+000	(1.60925565378864e-001dB,-1.84109622956488e+001°)
2.80504613575491e+000	(1.68076383143638e-001dB,-1.88564643107270e+001°)
2.87038405374221e+000	(1.75521680961468e-001dB,-1.93135091453216e+001°)
2.93724388734882e+000	(1.83271163279085e-001dB,-1.97824456466858e+001°)
3.00566108654353e+000	(1.91334580495130e-001dB,-2.02636360445448e+001°)
3.07567192703095e+000	(1.99721690521664e-001dB,-2.07574565738164e+001°)
3.14731352948542e+000	(2.08442214560386e-001dB,-2.12642981247437e+001°)
3.22062387923283e+000	(2.17505786445983e-001dB,-2.17845669206262e+001°)
3.29564184639102e+000	(2.26921894846607e-001dB,-2.23186852231172e+001°)
3.37240720647913e+000	(2.36699817545345e-001dB,-2.28670920647604e+001°)
3.45096066150721e+000	(2.46848546954908e-001dB,-2.34302440081071e+001°)
3.53134386155688e+000	(2.57376705942635e-001dB,-2.40086159303339e+001°)
3.61359942686482e+000	(2.68292452962605e-001dB,-2.46027018317912e+001°)
3.69777097042052e+000	(2.79603375408340e-001dB,-2.52130156663202e+001°)
3.78390312109052e+000	(2.91316370012201e-001dB,-2.58400921904793e+001°)
3.87204154728120e+000	(3.03437509028516e-001dB,-2.64844878279959e+001°)
3.96223298115278e+000	(3.15971890846782e-001dB,-2.71467815447938e+001°)
4.05452524339732e+000	(3.28923473591400e-001dB,-2.78275757288137e+001°)
4.14896726859390e+000	(3.42294890177230e-001dB,-2.85274970675299e+001°)
4.24560913115436e+000	(3.56087243208249e-001dB,-2.92471974145399e+001°)
4.34450207187344e+000	(3.70299878034797e-001dB,-2.99873546348386e+001°)
4.44569852509731e+000	(3.84930132225665e-001dB,-3.07486734163683e+001°)
4.54925214652496e+000	(3.99973059672822e-001dB,-3.15318860331117e+001°)
4.65521784165717e+000	(4.15421127534161e-001dB,-3.23377530423589e+001°)
4.76365179490812e+000	(4.31263884243314e-001dB,-3.31670638957864e+001°)
4.87461149939511e+000	(4.47487596884678e-001dB,-3.40206374406178e+001°)
4.98815578742220e+000	(4.64074856361056e-001dB,-3.48993222833626e+001°)
5.10434486167382e+000	(4.81004148983761e-001dB,-3.58039969844453e+001°)
5.22324032713510e+000	(4.98249393410893e-001dB,-3.67355700474159e+001°)
5.34490522375558e+000	(5.15779442268674e-001dB,-3.76949796613994e+001°)
5.46940405987388e+000	(5.33557548338592e-001dB,-3.86831931500145e+001°)
5.59680284642084e+000	(5.51540795907001e-001dB,-3.97012060742120e+001°)
5.72716913191943e+000	(5.69679498786911e-001dB,-4.07500409304573e+001°)
5.86057203829980e+000	(5.87916567666668e-001dB,-4.18307453795183e+001°)
5.99708229754872e+000	(6.06186850857922e-001dB,-4.29443899350119e+001°)
6.13677228921257e+000	(6.24416454243182e-001dB,-4.40920650350657e+001°)
6.27971607877395e+000	(6.42522048303352e-001dB,-4.52748774152933e+001°)
6.42598945692215e+000	(6.60410172576755e-001dB,-4.64939456971953e+001°)
6.57566997973845e+000	(6.77976550797188e-001dB,-4.77503951036362e+001°)
6.72883700981728e+000	(6.95105433305707e-001dB,-4.90453512128735e+001°)
6.88557175834541e+000	(7.11668987140866e-001dB,-5.03799326655427e+001°)
7.04595732816113e+000	(7.27526758475555e-001dB,-5.17552427459828e+001°)
7.21007875781651e+000	(7.42525236748371e-001dB,-5.31723597714110e+001°)
7.37802306666596e+000	(7.56497554856432e-001dB,-5.46323262409223e+001°)
7.54987930100503e+000	(7.69263365011426e-001dB,-5.61361367223946e+001°)
7.72573858128397e+000	(7.80628935126465e-001dB,-5.76847244904113e+001°)
7.90569415042094e+000	(7.90387515645016e-001dB,-5.92789469735108e+001°)
8.08984142324070e+000	(7.98320031215360e-001dB,-6.09195701254324e+001°)
8.27827803706477e+000	(8.04196155142586e-001dB,-6.26072519032167e+001°)
8.47110390348005e+000	(8.07775826629306e-001dB,-6.43425251150924e+001°)
8.66842126131328e+000	(8.08811270893718e-001dB,-6.61257799923335e+001°)
8.87033473083938e+000	(8.07049579742403e-001dB,-6.79572469399384e+001°)
9.07695136925252e+000	(8.02235904492429e-001dB,-6.98369800280798e+001°)
9.28838072742930e+000	(7.94117303763396e-001dB,-7.17648418954168e+001°)
9.50473490801402e+000	(7.82447275218402e-001dB,-7.37404908407209e+001°)
9.72612862485700e+000	(7.66990982671124e-001dB,-7.57633709737196e+001°)
9.95267926383742e+000	(7.47531168269099e-001dB,-7.78327063715111e+001°)
1.01845069451028e+001	(7.23874714292668e-001dB,-7.99475002349152e+001°)
1.04217345867584e+001	(6.95859791532635e-001dB,-8.21065400518023e+001°)
1.06644879700398e+001	(6.63363502784942e-001dB,-8.43084097456037e+001°)
1.09128958060041e+001	(6.26309902744594e-001dB,-8.65515097136828e+001°)
1.11670898037741e+001	(5.84678251865545e-001dB,-8.88340855432667e+001°)
1.14272047403719e+001	(5.38511344107648e-001dB,-9.11542660390250e+001°)
1.16933785321799e+001	(4.87923739341875e-001dB,-9.35101110194382e+001°)
1.19657523080659e+001	(4.33109732535015e-001dB,-9.58996691588696e+001°)
1.22444704842111e+001	(3.74350904926245e-001dB,-9.83210459952623e+001°)
1.25296808406818e+001	(3.12023127415291e-001dB,-1.00772482121562e+002°)
1.28215345997841e+001	(2.46602922159178e-001dB,-1.03252441568256e+002°)
1.31201865062443e+001	(1.78673132305980e-001dB,-1.05759710503170e+002°)
1.34257949092563e+001	(1.08927897728780e-001dB,-1.08293506662339e+002°)
1.37385218464406e+001	(3.81769808516121e-002dB,-1.10853600422783e+002°)
1.40585331297587e+001	(-3.26504761486081e-002dB,-1.13440449176693e+002°)
1.43859984334289e+001	(-1.02502662569891e-001dB,-1.16055347714389e+002°)
1.47210913838897e+001	(-1.70202189906427e-001dB,-1.18700598728572e+002°)
1.50639896518589e+001	(-2.34443530612289e-001dB,-1.21379709390882e+002°)
1.54148750465370e+001	(-2.93790900234236e-001dB,-1.24097622327656e+002°)
1.57739336120048e+001	(-3.46676909287379e-001dB,-1.26860992376720e+002°)
1.61413557258664e+001	(-3.91402701712479e-001dB,-1.29678524428995e+002°)
1.65173362001899e+001	(-4.26140935563739e-001dB,-1.32561392681026e+002°)
1.69020743847995e+001	(-4.48943993763312e-001dB,-1.35523768001606e+002°)
1.72957742729734e+001	(-4.57761475747751e-001dB,-1.38583488041103e+002°)
1.76986446096034e+001	(-4.50473702656908e-001dB,-1.41762914105061e+002°)
1.81108990018747e+001	(-4.24952298598997e-001dB,-1.45090028813578e+002°)
1.85327560325229e+001	(-3.79165890867516e-001dB,-1.48599836398788e+002°)
1.89644393757295e+001	(-3.11360142833782e-001dB,-1.52336125997069e+002°)
1.94061779157172e+001	(-2.20358887519687e-001dB,-1.56353630764481e+002°)
1.98582058681070e+001	(-1.06059665724845e-001dB,-1.60720525503643e+002°)
2.03207629041024e+001	(2.97660808257144e-002dB,-1.65520977318234e+002°)
2.07940942775667e+001	(1.82215761427797e-001dB,-1.70856954377242e+002°)
2.12784509550594e+001	(3.41368553264918e-001dB,-1.76847473337445e+002°)
2.17740897489020e+001	(4.89679687668612e-001dB,1.76378329465819e+002°)
2.22812734533436e+001	(5.98945144125346e-001dB,1.68700331402473e+002°)
2.28002709838977e+001	(6.28085882761414e-001dB,1.60045956100880e+002°)
2.33313575199247e+001	(5.24572945985449e-001dB,1.50449608916050e+002°)
2.38748146505358e+001	(2.33196380599830e-001dB,1.40114292707640e+002°)
2.44309305238952e+001	(-2.87209016643326e-001dB,1.29427848605745e+002°)
2.49999999999999e+001	(-1.04669474158763e+000dB,1.18888350513789e+002°)
2.55823248070188e+001	(-2.01939743945269e+000dB,1.08960114026216e+002°)
2.61782137012724e+001	(-3.15513694572349e+000dB,9.99519978705025e+001°)
2.67879826309401e+001	(-4.39783458084588e+000dB,9.19858732868303e+001°)
2.74119549035795e+001	(-5.69907535637606e+000dB,8.50401530369876e+001°)
2.80504613575490e+001	(-7.02321488573159e+000dB,7.90146801867305e+001°)
2.87038405374220e+001	(-8.34673270029961e+000dB,7.37815721939883e+001°)
2.93724388734881e+001	(-9.65540515333043e+000dB,6.92143353027891e+001°)
3.00566108654352e+001	(-1.09413801523135e+001dB,6.52006655294039e+001°)
3.07567192703094e+001	(-1.22008874227347e+001dB,6.16460193143571e+001°)
3.14731352948541e+001	(-1.34326515701611e+001dB,5.84728892884077e+001°)
3.22062387923283e+001	(-1.46368599122002e+001dB,5.56184976537924e+001°)
3.29564184639101e+001	(-1.58145152911830e+001dB,5.30321899015359e+001°)
3.37240720647912e+001	(-1.69670399523582e+001dB,5.06730502935506e+001°)
3.45096066150720e+001	(-1.80960379096123e+001dB,4.85078995609024e+001°)
3.53134386155687e+001	(-1.92031555695794e+001dB,4.65096814346580e+001°)
3.61359942686481e+001	(-2.02900025981282e+001dB,4.46561888248930e+001°)
3.69777097042051e+001	(-2.13581093948365e+001dB,4.29290675649381e+001°)
3.78390312109051e+001	(-2.24089065904106e+001dB,4.13130396298793e+001°)
3.87204154728119e+001	(-2.34437175999217e+001dB,3.97952970466600e+001°)
3.96223298115277e+001	(-2.44637587332099e+001dB,3.83650275554738e+001°)
4.05452524339731e+001	(-2.54701435023945e+001dB,3.70130417323748e+001°)
4.14896726859389e+001	(-2.64638890858033e+001dB,3.57314783184262e+001°)
4.24560913115435e+001	(-2.74459237224222e+001dB,3.45135700065646e+001°)
4.34450207187342e+001	(-2.84170943142757e+001dB,3.33534561602921e+001°)
4.44569852509729e+001	(-2.93781738245839e+001dB,3.22460321443007e+001°)
4.54925214652494e+001	(-3.03298682501707e+001dB,3.11868273703403e+001°)
4.65521784165715e+001	(-3.12728230626080e+001dB,3.01719059916637e+001°)
4.76365179490810e+001	(-3.22076290820757e+001dB,2.91977855634112e+001°)
4.87461149939510e+001	(-3.31348277884309e+001dB,2.82613700360934e+001°)
4.98815578742218e+001	(-3.40549160964970e+001dB,2.73598942486779e+001°)
5.10434486167380e+001	(-3.49683506340246e+001dB,2.64908776991923e+001°)
5.22324032713508e+001	(-3.58755515654738e+001dB,2.56520858406678e+001°)
5.34490522375556e+001	(-3.67769060054714e+001dB,2.48414975132568e+001°)
5.46940405987386e+001	(-3.76727710642081e+001dB,2.40572774052554e+001°)
5.59680284642083e+001	(-3.85634765642364e+001dB,2.32977526557957e+001°)
5.72716913191941e+001	(-3.94493274647660e+001dB,2.25613928846270e+001°)
5.86057203829978e+001	(-4.03306060260197e+001dB,2.18467930705792e+001°)
5.99708229754870e+001	(-4.12075737427516e+001dB,2.11526588082400e+001°)
6.13677228921255e+001	(-4.20804730727605e+001dB,2.04777935583598e+001°)
6.27971607877393e+001	(-4.29495289832178e+001dB,1.98210875763222e+001°)
6.42598945692213e+001	(-4.38149503349035e+001dB,1.91815082583734e+001°)
6.57566997973843e+001	(-4.46769311219954e+001dB,1.85580916900114e+001°)
6.72883700981726e+001	(-4.55356515828751e+001dB,1.79499352172309e+001°)
6.88557175834539e+001	(-4.63912791954926e+001dB,1.73561908908928e+001°)
7.04595732816111e+001	(-4.72439695691150e+001dB,1.67760596586875e+001°)
7.21007875781649e+001	(-4.80938672427954e+001dB,1.62087861990674e+001°)
7.37802306666593e+001	(-4.89411063995607e+001dB,1.56536543079312e+001°)
7.54987930100501e+001	(-4.97858115041584e+001dB,1.51099827624529e+001°)
7.72573858128394e+001	(-5.06280978711684e+001dB,1.45771215977616e+001°)
7.90569415042091e+001	(-5.14680721693698e+001dB,1.40544487416319e+001°)
8.08984142324067e+001	(-5.23058328674542e+001dB,1.35413669602770e+001°)
8.27827803706474e+001	(-5.31414706254461e+001dB,1.30373010750139e+001°)
8.47110390348003e+001	(-5.39750686355583e+001dB,1.25416954152305e+001°)
8.66842126131325e+001	(-5.48067029156303e+001dB,1.20540114778884e+001°)
8.87033473083935e+001	(-5.56364425577783e+001dB,1.15737257679261e+001°)
9.07695136925249e+001	(-5.64643499344193e+001dB,1.11003277974683e+001°)
9.28838072742927e+001	(-5.72904808633999e+001dB,1.06333182248265e+001°)
9.50473490801399e+001	(-5.81148847335728e+001dB,1.01722071169904e+001°)
9.72612862485697e+001	(-5.89376045917996e+001dB,9.71651232168597e+000°)
9.95267926383738e+001	(-5.97586771920291e+001dB,9.26575793723753e+000°)
1.01845069451028e+002	(-6.05781330067846e+001dB,8.81947287041674e+000°)
1.04217345867583e+002	(-6.13959962011070e+001dB,8.37718947428689e+000°)
1.06644879700398e+002	(-6.22122845687302e+001dB,7.93844225974025e+000°)
1.09128958060041e+002	(-6.30270094300050e+001dB,7.50276667609328e+000°)
1.11670898037740e+002	(-6.38401754908565e+001dB,7.06969795769983e+000°)
1.14272047403718e+002	(-6.46517806618364e+001dB,6.63877003517760e+000°)
1.16933785321799e+002	(-6.54618158361224e+001dB,6.20951451147879e+000°)
1.19657523080659e+002	(-6.62702646251458e+001dB,5.78145970475887e+000°)
1.22444704842111e+002	(-6.70771030503504e+001dB,5.35412976178986e+000°)
1.25296808406817e+002	(-6.78822991894648e+001dB,4.92704384758619e+000°)
1.28215345997841e+002	(-6.86858127755559e+001dB,4.49971541896253e+000°)
1.31201865062442e+002	(-6.94875947470709e+001dB,4.07165159195544e+000°)
1.34257949092562e+002	(-7.02875867470521e+001dB,3.64235261544045e+000°)
1.37385218464405e+002	(-7.10857205697504e+001dB,3.21131146586430e+000°)
1.40585331297587e+002	(-7.18819175529599e+001dB,2.77801358080958e+000°)
1.43859984334289e+002	(-7.26760879145894e+001dB,2.34193675210661e+000°)
1.47210913838896e+002	(-7.34681300322687e+001dB,1.90255120242429e+000°)
1.50639896518589e+002	(-7.42579296651905e+001dB,1.45931987264914e+000°)
1.54148750465370e+002	(-7.50453591179224e+001dB,1.01169895089297e+000°)
1.57739336120047e+002	(-7.58302763466393e+001dB,5.59138677581167e-001°)
1.61413557258663e+002	(-7.66125240090923e+001dB,1.01084464705439e-001°)
1.65173362001898e+002	(-7.73919284607607e+001dB,-3.63021629186167e-001°)
1.69020743847995e+002	(-7.81682987009429e+001dB,-8.33739023461472e-001°)
1.72957742729733e+002	(-7.89414252741955e+001dB,-1.31162629175903e+000°)
1.76986446096034e+002	(-7.97110791344087e+001dB,-1.79723834065328e+000°)
1.81108990018747e+002	(-8.04770104810522e+001dB,-2.29112304002916e+000°)
1.85327560325228e+002	(-8.12389475796898e+001dB,-2.79381725507640e+000°)
1.89644393757295e+002	(-8.19965955817574e+001dB,-3.30584223205391e+000°)
1.94061779157172e+002	(-8.27496353618460e+001dB,-3.82769829477875e+000°)
1.98582058681069e+002	(-8.34977223942627e+001dB,-4.35985881638688e+000°)
2.03207629041024e+002	(-8.42404856944279e+001dB,-4.90276344227844e+000°)
2.07940942775667e+002	(-8.49775268546260e+001dB,-5.45681055557496e+000°)
2.12784509550593e+002	(-8.57084192076069e+001dB,-6.02234899681756e+000°)
2.17740897489019e+002	(-8.64327071553865e+001dB,-6.59966907534003e+000°)
2.22812734533435e+002	(-8.71499057041092e+001dB,-7.18899294121923e+000°)
2.28002709838976e+002	(-8.78595002487087e+001dB,-7.79046442415266e+000°)
2.33313575199246e+002	(-8.85609466530418e+001dB,-8.40413848863874e+000°)
2.38748146505358e+002	(-8.92536716717985e+001dB,-9.02997050298717e+000°)
2.44309305238951e+002	(-8.99370737594057e+001dB,-9.66780557146703e+000°)
2.49999999999999e+002	(-9.06105243079469e+001dB,-1.03173682323962e+001°)
2.55823248070187e+002	(-9.12733693504179e+001dB,-1.09782528774243e+001°)
2.61782137012723e+002	(-9.19249317571371e+001dB,-1.16499152949037e+001°)
2.67879826309400e+002	(-9.25645139415571e+001dB,-1.23316657787408e+001°)
2.74119549035795e+002	(-9.31914010771562e+001dB,-1.30226642684640e+001°)
2.80504613575489e+002	(-9.38048648095234e+001dB,-1.37219179909877e+001°)
2.87038405374219e+002	(-9.44041674278711e+001dB,-1.44282820544027e+001°)
2.93724388734881e+002	(-9.49885664385059e+001dB,-1.51404633947321e+001°)
3.00000000000000e+002	(-9.55113584193438e+001dB,-1.57982313559543e+001°)
