Freq.	V(out)
2.00000000000000e+00	(-4.45321607708015e-03dB,-1.64531508225754e+01°)
2.04658598456151e+00	(-4.67977775121862e-03dB,-1.68375402159108e+01°)
2.09425709610180e+00	(-4.91855557132126e-03dB,-1.72309628757763e+01°)
2.14303861047521e+00	(-5.17026296377351e-03dB,-1.76336346429952e+01°)
2.19295639228637e+00	(-5.43565869502195e-03dB,-1.80457767429758e+01°)
2.24403690860393e+00	(-5.71554991175006e-03dB,-1.84676159331454e+01°)
2.29630724299376e+00	(-6.01079537906739e-03dB,-1.88993846550162e+01°)
2.34979510987906e+00	(-6.32230892583916e-03dB,-1.93413211910352e+01°)
2.40452886923483e+00	(-6.65106310837393e-03dB,-1.97936698263830e+01°)
2.46053754162476e+00	(-6.99809310085413e-03dB,-2.02566810158808e+01°)
2.51785082358833e+00	(-7.36450082218665e-03dB,-2.07306115561784e+01°)
2.57649910338627e+00	(-7.75145930811829e-03dB,-2.12157247633933e+01°)
2.63651347711281e+00	(-8.16021733534389e-03dB,-2.17122906563783e+01°)
2.69792576518331e+00	(-8.59210430486754e-03dB,-2.22205861458003e+01°)
2.76076852920577e+00	(-9.04853538901642e-03dB,-2.27408952292166e+01°)
2.82507508924551e+00	(-9.53101694468819e-03dB,-2.32735091923398e+01°)
2.89087954149185e+00	(-1.00411521936916e-02dB,-2.38187268166913e+01°)
2.95821677633641e+00	(-1.05806471671806e-02dB,-2.43768545938478e+01°)
3.02712249687241e+00	(-1.11513169071435e-02dB,-2.49482069464952e+01°)
3.09763323782496e+00	(-1.17550919145219e-02dB,-2.55331064565126e+01°)
3.16978638492222e+00	(-1.23940248268280e-02dB,-2.61318841003235e+01°)
3.24362019471786e+00	(-1.30702973026432e-02dB,-2.67448794917649e+01°)
3.31917381487512e+00	(-1.37862270811885e-02dB,-2.73724411327415e+01°)
3.39648730492349e+00	(-1.45442751780669e-02dB,-2.80149266719601e+01°)
3.47560165749875e+00	(-1.53470531654616e-02dB,-2.86727031720611e+01°)
3.55655882007784e+00	(-1.61973304741627e-02dB,-2.93461473855055e+01°)
3.63940171721996e+00	(-1.70980416392241e-02dB,-3.00356460396150e+01°)
3.72417427332573e+00	(-1.80522933949369e-02dB,-3.07415961312211e+01°)
3.81092143592649e+00	(-1.90633715049367e-02dB,-3.14644052314446e+01°)
3.89968919951609e+00	(-2.01347471904511e-02dB,-3.22044918012109e+01°)
3.99052462993776e+00	(-2.12700829961843e-02dB,-3.29622855182136e+01°)
4.08347588933905e+00	(-2.24732379009531e-02dB,-3.37382276161608e+01°)
4.17859226170807e+00	(-2.37482714504314e-02dB,-3.45327712373003e+01°)
4.27592417900446e+00	(-2.50994466494927e-02dB,-3.53463817994083e+01°)
4.37552324789910e+00	(-2.65312313108490e-02dB,-3.61795373786606e+01°)
4.47744227713667e+00	(-2.80482975088684e-02dB,-3.70327291100904e+01°)
4.58173530553554e+00	(-2.96555187346139e-02dB,-3.79064616076793e+01°)
4.68845763063984e+00	(-3.13579642903398e-02dB,-3.88012534065462e+01°)
4.79766583803898e+00	(-3.31608903957900e-02dB,-3.97176374302006e+01°)
4.90941783137005e+00	(-3.50697274089523e-02dB,-4.06561614864308e+01°)
5.02377286301915e+00	(-3.70900624857478e-02dB,-4.16173887961215e+01°)
5.14079156553772e+00	(-3.92276169201198e-02dB,-4.26018985601642e+01°)
5.26053598379076e+00	(-4.14882173165027e-02dB,-4.36102865706545e+01°)
5.38306960785382e+00	(-4.38777596524203e-02dB,-4.46431658738070e+01°)
5.50845740667633e+00	(-4.64021651897800e-02dB,-4.57011674934757e+01°)
5.63676586252890e+00	(-4.90673270926882e-02dB,-4.67849412259038e+01°)
5.76806300625320e+00	(-5.18790465088338e-02dB,-4.78951565183725e+01°)
5.90241845333276e+00	(-5.48429567724811e-02dB,-4.90325034468359e+01°)
6.03990344080402e+00	(-5.79644342962240e-02dB,-5.01976938104644e+01°)
6.18059086502717e+00	(-6.12484946407502e-02dB,-5.13914623643562e+01°)
6.32455532033675e+00	(-6.46996721934730e-02dB,-5.26145682155818e+01°)
6.47187313859255e+00	(-6.83218818580404e-02dB,-5.38677964122815e+01°)
6.62262242965181e+00	(-7.21182611693949e-02dB,-5.51519597608582e+01°)
6.77688312278404e+00	(-7.60909913183269e-02dB,-5.64679009124850e+01°)
6.93473700905062e+00	(-8.02410957146969e-02dB,-5.78164947673234e+01°)
7.09626778467150e+00	(-8.45682149621591e-02dB,-5.91986512531461e+01°)
7.26156109540201e+00	(-8.90703574936315e-02dB,-6.06153185446476e+01°)
7.43070458194344e+00	(-9.37436256577640e-02dB,-6.20674868007629e+01°)
7.60378792641121e+00	(-9.85819178046388e-02dB,-6.35561925099963e+01°)
7.78090289988560e+00	(-1.03576607949372e-01dB,-6.50825235482896e+01°)
7.96214341106993e+00	(-1.08716205971207e-01dB,-6.66476250705497e+01°)
8.14760555608224e+00	(-1.13986003121321e-01dB,-6.82527063758361e+01°)
8.33738766940669e+00	(-1.19367709982782e-01dB,-6.98990489076211e+01°)
8.53159037603184e+00	(-1.24839097094287e-01dB,-7.15880155747091e+01°)
8.73031664480330e+00	(-1.30373652391629e-01dB,-7.33210616055325e+01°)
8.93367184301924e+00	(-1.35940274670885e-01dB,-7.50997471788187e+01°)
9.14176379229748e+00	(-1.41503028712754e-01dB,-7.69257521070843e+01°)
9.35470282574394e+00	(-1.47020995894885e-01dB,-7.88008928860096e+01°)
9.57260184645275e+00	(-1.52448264507159e-01dB,-8.07271424621152e+01°)
9.79557638736890e+00	(-1.57734117152519e-01dB,-8.27066531126077e+01°)
1.00237446725454e+01	(-1.62823489281460e-01dB,-8.47417828734026e+01°)
1.02572276798273e+01	(-1.67657793984668e-01dB,-8.68351259919036e+01°)
1.04961492049954e+01	(-1.72176234791822e-01dB,-8.89895479163875e+01°)
1.07406359274050e+01	(-1.76317761806664e-01dB,-9.12082253579545e+01°)
1.09908174771525e+01	(-1.80023868783032e-01dB,-9.34946919649368e+01°)
1.12468265038070e+01	(-1.83242481789497e-01dB,-9.58528901197009e+01°)
1.15087987467431e+01	(-1.85933256362003e-01dB,-9.82872292834520e+01°)
1.17768731071118e+01	(-1.88074682214932e-01dB,-1.00802651145645e+02°)
1.20511917214871e+01	(-1.89673495464168e-01dB,-1.03404701536630e+02°)
1.23319000372296e+01	(-1.90777020338566e-01dB,-1.06099608571348e+02°)
1.26191468896038e+01	(-1.91489206699038e-01dB,-1.08894365717440e+02°)
1.29130845806931e+01	(-1.91991294718303e-01dB,-1.11796817296356e+02°)
1.32138689601519e+01	(-1.92568216619123e-01dB,-1.14815742158597e+02°)
1.35216595078396e+01	(-1.93642020222212e-01dB,-1.17960928697370e+02°)
1.38366194183787e+01	(-1.95813735868395e-01dB,-1.21243230696169e+02°)
1.41589156876827e+01	(-1.99915144918764e-01dB,-1.24674588421623e+02°)
1.44887192014998e+01	(-2.07071739715652e-01dB,-1.28267992562795e+02°)
1.48262048260183e+01	(-2.18777625627670e-01dB,-1.32037359907400e+02°)
1.51715515005836e+01	(-2.36981960124369e-01dB,-1.35997279242988e+02°)
1.55249423325738e+01	(-2.64184419694412e-01dB,-1.40162574902489e+02°)
1.58865646944856e+01	(-3.03533742389140e-01dB,-1.44547626152490e+02°)
1.62566103232819e+01	(-3.58918269379604e-01dB,-1.49165378123366e+02°)
1.66352754220534e+01	(-4.35030554461052e-01dB,-1.54025992222266e+02°)
1.70227607640475e+01	(-5.37380210367007e-01dB,-1.59135122038173e+02°)
1.74192717991216e+01	(-6.72222235248438e-01dB,-1.64491876382454e+02°)
1.78250187626749e+01	(-8.46365972152345e-01dB,-1.70086650094884e+02°)
1.82402167871181e+01	(-1.06683806041635e+00dB,-1.75899153897778e+02°)
1.86650860159398e+01	(-1.34039638478478e+00dB,1.78102884976979e+02°)
1.90998517204287e+01	(-1.67293186456208e+00dB,1.71963824090953e+02°)
1.95447444191162e+01	(-2.06884250401823e+00dB,1.65738594918364e+02°)
1.99999999999999e+01	(-2.53050051491444e+00dB,1.59489485854583e+02°)
2.04658598456150e+01	(-3.05793607145914e+00dB,1.53281586068381e+02°)
2.09425709610179e+01	(-3.64881886883265e+00dB,1.47177682232156e+02°)
2.14303861047521e+01	(-4.29874257573444e+00dB,1.41233587288486e+02°)
2.19295639228636e+01	(-5.00173898415904e+00dB,1.35494732381267e+02°)
2.24403690860392e+01	(-5.75090102640983e+00dB,1.29994447144232e+02°)
2.29630724299376e+01	(-6.53899128558904e+00dB,1.24753885876753e+02°)
2.34979510987905e+01	(-7.35894603887611e+00dB,1.19783213651613e+02°)
2.40452886923482e+01	(-8.20423227663849e+00dB,1.15083528286134e+02°)
2.46053754162475e+01	(-9.06905660443063e+00dB,1.10649033223301e+02°)
2.51785082358833e+01	(-9.94845066849982e+00dB,1.06469110965856e+02°)
2.57649910338626e+01	(-1.08382676093835e+01dB,1.02530099057526e+02°)
2.63651347711281e+01	(-1.17351229068954e+01dB,9.88166945870941e+01°)
2.69792576518330e+01	(-1.26363064023285e+01dB,9.53129940416538e+01°)
2.76076852920576e+01	(-1.35396843637329e+01dB,9.20032174072584e+01°)
2.82507508924550e+01	(-1.44436034230224e+01dB,8.88721801760768e+01°)
2.89087954149184e+01	(-1.53468028730909e+01dB,8.59055757306693e+01°)
2.95821677633640e+01	(-1.62483381822875e+01dB,8.30901218667901e+01°)
3.02712249687241e+01	(-1.71475163392299e+01dB,8.04136142102792e+01°)
3.09763323782495e+01	(-1.80438423905319e+01dB,7.78649187342284e+01°)
3.16978638492221e+01	(-1.89369759357504e+01dB,7.54339266558520e+01°)
3.24362019471785e+01	(-1.98266961416145e+01dB,7.31114879688769e+01°)
3.31917381487511e+01	(-2.07128738565506e+01dB,7.08893346024478e+01°)
3.39648730492348e+01	(-2.15954495354541e+01dB,6.87600003883919e+01°)
3.47560165749874e+01	(-2.24744158571179e+01dB,6.67167423391452e+01°)
3.55655882007783e+01	(-2.33498040956592e+01dB,6.47534658993484e+01°)
3.63940171721995e+01	(-2.42216734738520e+01dB,6.28646556011221e+01°)
3.72417427332572e+01	(-2.50901028724155e+01dB,6.10453117474955e+01°)
3.81092143592648e+01	(-2.59551843929236e+01dB,5.92908932383870e+01°)
3.89968919951608e+01	(-2.68170183740947e+01dB,5.75972663442281e+01°)
3.99052462993774e+01	(-2.76757095441634e+01dB,5.59606590569107e+01°)
4.08347588933904e+01	(-2.85313640586570e+01dB,5.43776205599516e+01°)
4.17859226170806e+01	(-2.93840872259779e+01dB,5.28449853278809e+01°)
4.27592417900445e+01	(-3.02339817652402e+01dB,5.13598413674757e+01°)
4.37552324789909e+01	(-3.10811464739819e+01dB,4.99195021363346e+01°)
4.47744227713666e+01	(-3.19256752094711e+01dB,4.85214817080656e+01°)
4.58173530553553e+01	(-3.27676561078097e+01dB,4.71634727920454e+01°)
4.68845763063982e+01	(-3.36071709811006e+01dB,4.58433272555421e+01°)
4.79766583803896e+01	(-3.44442948455122e+01dB,4.45590388347218e+01°)
4.90941783137004e+01	(-3.52790955429184e+01dB,4.33087277574182e+01°)
5.02377286301914e+01	(-3.61116334264699e+01dB,4.20906270338744e+01°)
5.14079156553771e+01	(-3.69419610864589e+01dB,4.09030702017908e+01°)
5.26053598379074e+01	(-3.77701230975179e+01dB,3.97444803388875e+01°)
5.38306960785381e+01	(-3.85961557718345e+01dB,3.86133601800413e+01°)
5.50845740667631e+01	(-3.94200869058991e+01dB,3.75082831970766e+01°)
5.63676586252888e+01	(-4.02419355105008e+01dB,3.64278855178220e+01°)
5.76806300625319e+01	(-4.10617115153901e+01dB,3.53708585772964e+01°)
5.90241845333274e+01	(-4.18794154413505e+01dB,3.43359424082470e+01°)
6.03990344080400e+01	(-4.26950380334478e+01dB,3.33219194908988e+01°)
6.18059086502715e+01	(-4.35085598500316e+01dB,3.23276090930255e+01°)
6.32455532033673e+01	(-4.43199508027083e+01dB,3.13518620414946e+01°)
6.47187313859254e+01	(-4.51291696430331e+01dB,3.03935558755069e+01°)
6.62262242965179e+01	(-4.59361633921290e+01dB,2.94515903400451e+01°)
6.77688312278402e+01	(-4.67408667098726e+01dB,2.85248831857164e+01°)
6.93473700905060e+01	(-4.75432012007098e+01dB,2.76123662484138e+01°)
7.09626778467148e+01	(-4.83430746536397e+01dB,2.67129817891326e+01°)
7.26156109540199e+01	(-4.91403802144362e+01dB,2.58256790810377e+01°)
7.43070458194342e+01	(-4.99349954888139e+01dB,2.49494112375419e+01°)
7.60378792641119e+01	(-5.07267815760220e+01dB,2.40831322818746e+01°)
7.78090289988557e+01	(-5.15155820332899e+01dB,2.32257944654267e+01°)
7.96214341106991e+01	(-5.23012217727051e+01dB,2.23763458491241e+01°)
8.14760555608221e+01	(-5.30835058935012e+01dB,2.15337281692262e+01°)
8.33738766940667e+01	(-5.38622184544208e+01dB,2.06968750162593e+01°)
8.53159037603181e+01	(-5.46371211928287e+01dB,1.98647103631999e+01°)
8.73031664480328e+01	(-5.54079521996298e+01dB,1.90361474864405e+01°)
8.93367184301922e+01	(-5.61744245618158e+01dB,1.82100883302839e+01°)
9.14176379229745e+01	(-5.69362249876647e+01dB,1.73854233724778e+01°)
9.35470282574392e+01	(-5.76930124332599e+01dB,1.65610320542775e+01°)
9.57260184645272e+01	(-5.84444167530730e+01dB,1.57357838432155e+01°)
9.79557638736887e+01	(-5.91900374018555e+01dB,1.49085399996193e+01°)
1.00237446725454e+02	(-5.99294422199485e+01dB,1.40781561182339e+01°)
1.02572276798272e+02	(-6.06621663392562e+01dB,1.32434855132689e+01°)
1.04961492049954e+02	(-6.13877112523906e+01dB,1.24033835078730e+01°)
1.07406359274050e+02	(-6.21055440927004e+01dB,1.15567126764772e+01°)
1.09908174771524e+02	(-6.28150971777473e+01dB,1.07023490696152e+01°)
1.12468265038069e+02	(-6.35157678729804e+01dB,9.83918942483581e+00°)
1.15087987467431e+02	(-6.42069188354403e+01dB,8.96615933339775e+00°)
1.17768731071117e+02	(-6.48878786988171e+01dB,8.08222229017450e+00°)
1.20511917214871e+02	(-6.55579432605280e+01dB,7.18638950370361e+00°)
1.23319000372296e+02	(-6.62163772280908e+01dB,6.27773028535588e+00°)
1.26191468896038e+02	(-6.68624165753314e+01dB,5.35538277286764e+00°)
1.29130845806930e+02	(-6.74952715483575e+01dB,4.41856467673202e+00°)
1.32138689601518e+02	(-6.81141303463203e+01dB,3.46658367210720e+00°)
1.35216595078396e+02	(-6.87181634825634e+01dB,2.49884699911947e+00°)
1.38366194183787e+02	(-6.93065288078955e+01dB,1.51486978692288e+00°)
1.41589156876827e+02	(-6.98783771498909e+01dB,5.14281588588921e-01°)
1.44887192014997e+02	(-7.04328584912318e+01dB,-5.03169387995844e-01°)
1.48262048260183e+02	(-7.09691285775833e+01dB,-1.53761483688332e+00°)
1.51715515005836e+02	(-7.14863558132544e+01dB,-2.58906811272885e+00°)
1.55249423325737e+02	(-7.19837282732674e+01dB,-3.65742949523392e+00°)
1.58865646944855e+02	(-7.24604606360836e+01dB,-4.74249511251705e+00°)
1.62566103232819e+02	(-7.29158008247569e+01dB,-5.84396949029928e+00°)
1.66352754220533e+02	(-7.33490361382104e+01dB,-6.96148148125407e+00°)
1.70227607640474e+02	(-7.37594986605850e+01dB,-8.09460310355701e+00°)
1.74192717991215e+02	(-7.41465697563255e+01dB,-9.24287059646343e+00°)
1.78250187626748e+02	(-7.45096834919307e+01dB,-1.04058068024915e+01°)
1.82402167871181e+02	(-7.48483288709652e+01dB,-1.15829438292721e+01°)
1.86650860159397e+02	(-7.51620508247016e+01dB,-1.27738448460582e+01°)
1.90998517204286e+02	(-7.54504499632649e+01dB,-1.39781238426880e+01°)
1.95447444191161e+02	(-7.57131811572376e+01dB,-1.51954622291771e+01°)
1.99999999999999e+02	(-7.59499510828695e+01dB,-1.64256212820792e+01°)
2.04658598456150e+02	(-7.61605149208314e+01dB,-1.76684496426012e+01°)
2.09425709610179e+02	(-7.63446724448897e+01dB,-1.89238853286248e+01°)
2.14303861047520e+02	(-7.65022637697440e+01dB,-2.01919520212613e+01°)
2.19295639228636e+02	(-7.66331650444165e+01dB,-2.14727497067981e+01°)
2.24403690860391e+02	(-7.67372843779658e+01dB,-2.27664400766026e+01°)
2.29630724299375e+02	(-7.68145582679807e+01dB,-2.40732273914314e+01°)
2.34979510987904e+02	(-7.68649487703606e+01dB,-2.53933357854238e+01°)
2.40452886923481e+02	(-7.68884416031960e+01dB,-2.67269842044485e+01°)
2.46053754162475e+02	(-7.68850453206678e+01dB,-2.80743603319588e+01°)
2.51785082358832e+02	(-7.68547916278611e+01dB,-2.94355949446757e+01°)
2.57649910338625e+02	(-7.67977368376492e+01dB,-3.08107381545625e+01°)
2.63651347711280e+02	(-7.67139644000672e+01dB,-3.21997389299396e+01°)
2.69792576518329e+02	(-7.66035883667184e+01dB,-3.36024291474637e+01°)
2.76076852920575e+02	(-7.64667575916696e+01dB,-3.50185132120417e+01°)
2.82507508924549e+02	(-7.63036604197644e+01dB,-3.64475640016816e+01°)
2.89087954149184e+02	(-7.61145295767498e+01dB,-3.78890255617968e+01°)
2.95821677633639e+02	(-7.58996469558141e+01dB,-3.93422226063845e+01°)
3.02712249687240e+02	(-7.56593479938944e+01dB,-4.08063765041250e+01°)
3.09763323782494e+02	(-7.53940253489619e+01dB,-4.22806270611724e+01°)
3.16978638492221e+02	(-7.51041316255492e+01dB,-4.37640590857026e+01°)
3.24362019471784e+02	(-7.47901809476486e+01dB,-4.52557324569894e+01°)
3.31917381487510e+02	(-7.44527492420123e+01dB,-4.67547142442422e+01°)
3.39648730492346e+02	(-7.40924731660139e+01dB,-4.82601113409723e+01°)
3.47560165749873e+02	(-7.37100476871623e+01dB,-4.97711021036801e+01°)
3.55655882007782e+02	(-7.33062223906727e+01dB,-5.12869656040676e+01°)
3.63940171721994e+02	(-7.28817966523115e+01dB,-5.28071073077991e+01°)
3.72417427332571e+02	(-7.24376138621946e+01dB,-5.43310802589933e+01°)
3.81092143592647e+02	(-7.19745549188665e+01dB,-5.58586011527669e+01°)
3.89968919951606e+02	(-7.14935312308579e+01dB,-5.73895609916361e+01°)
3.99052462993773e+02	(-7.09954774655034e+01dB,-5.89240303207116e+01°)
4.08347588933903e+02	(-7.04813442738145e+01dB,-6.04622593007832e+01°)
4.17859226170805e+02	(-6.99520911982307e+01dB,-6.20046730930070e+01°)
4.25000000000000e+02	(-6.95535202939909e+01dB,-6.31427366551449e+01°)
