Freq.	V(out)	frequency
1.50000000000000e+00	(6.73002146773752e-02dB,-6.63096340257128e+00°)	(3.52182518111362e+00dB,0.00000000000000e+00°)
1.53493948842113e+00	(7.04541762959273e-02dB,-6.78859161205597e+00°)	(3.72182518111362e+00dB,0.00000000000000e+00°)
1.57069282207635e+00	(7.37549362957244e-02dB,-6.95012007241140e+00°)	(3.92182518111362e+00dB,0.00000000000000e+00°)
1.60727895785641e+00	(7.72092285738296e-02dB,-7.11565618485600e+00°)	(4.12182518111362e+00dB,0.00000000000000e+00°)
1.64471729421478e+00	(8.08240855882064e-02dB,-7.28531106047267e+00°)	(4.32182518111362e+00dB,0.00000000000000e+00°)
1.68302768145295e+00	(8.46068504648614e-02dB,-7.45919969593860e+00°)	(4.52182518111362e+00dB,0.00000000000000e+00°)
1.72223043224532e+00	(8.85651894635465e-02dB,-7.63744116007970e+00°)	(4.72182518111362e+00dB,0.00000000000000e+00°)
1.76234633240929e+00	(9.27071047949383e-02dB,-7.82015879202314e+00°)	(4.92182518111362e+00dB,0.00000000000000e+00°)
1.80339665192612e+00	(9.70409477791631e-02dB,-8.00748041178115e+00°)	(5.12182518111362e+00dB,0.00000000000000e+00°)
1.84540315621857e+00	(1.01575432331804e-01dB,-8.19953854416372e+00°)	(5.32182518111362e+00dB,0.00000000000000e+00°)
1.88838811769125e+00	(1.06319648759392e-01dB,-8.39647065698752e+00°)	(5.52182518111362e+00dB,0.00000000000000e+00°)
1.93237432753970e+00	(1.11283077841243e-01dB,-8.59841941462449e+00°)	(5.72182518111362e+00dB,0.00000000000000e+00°)
1.97738510783461e+00	(1.16475605169273e-01dB,-8.80553294801419e+00°)	(5.92182518111362e+00dB,0.00000000000000e+00°)
2.02344432388748e+00	(1.21907535710501e-01dB,-9.01796514235290e+00°)	(6.12182518111362e+00dB,0.00000000000000e+00°)
2.07057639690433e+00	(1.27589608549716e-01dB,-9.23587594376794e+00°)	(6.32182518111362e+00dB,0.00000000000000e+00°)
2.11880631693413e+00	(1.33533011761253e-01dB,-9.45943168638812e+00°)	(6.52182518111362e+00dB,0.00000000000000e+00°)
2.16815965611889e+00	(1.39749397348864e-01dB,-9.68880544133361e+00°)	(6.72182518111362e+00dB,0.00000000000000e+00°)
2.21866258225231e+00	(1.46250896181408e-01dB,-9.92417738926827e+00°)	(6.92182518111362e+00dB,0.00000000000000e+00°)
2.27034187265431e+00	(1.53050132839342e-01dB,-1.01657352182881e+01°)	(7.12182518111362e+00dB,0.00000000000000e+00°)
2.32322492836872e+00	(1.60160240271992e-01dB,-1.04136745490599e+01°)	(7.32182518111362e+00dB,0.00000000000000e+00°)
2.37733978869167e+00	(1.67594874148810e-01dB,-1.06681993892752e+01°)	(7.52182518111362e+00dB,0.00000000000000e+00°)
2.43271514603839e+00	(1.75368226768357e-01dB,-1.09295226196512e+01°)	(7.72182518111362e+00dB,0.00000000000000e+00°)
2.48938036115634e+00	(1.83495040366722e-01dB,-1.11978665138811e+01°)	(7.92182518111362e+00dB,0.00000000000000e+00°)
2.54736547869261e+00	(1.91990619641598e-01dB,-1.14734632951332e+01°)	(8.12182518111362e+00dB,0.00000000000000e+00°)
2.60670124312406e+00	(2.00870843279382e-01dB,-1.17565557318977e+01°)	(8.32182518111362e+00dB,0.00000000000000e+00°)
2.66741911505838e+00	(2.10152174239356e-01dB,-1.20473977762008e+01°)	(8.52182518111362e+00dB,0.00000000000000e+00°)
2.72955128791497e+00	(2.19851668511374e-01dB,-1.23462552474438e+01°)	(8.72182518111362e+00dB,0.00000000000000e+00°)
2.79313070499430e+00	(2.29986982019720e-01dB,-1.26534065653730e+01°)	(8.92182518111362e+00dB,0.00000000000000e+00°)
2.85819107694487e+00	(2.40576375296634e-01dB,-1.29691435359603e+01°)	(9.12182518111362e+00dB,0.00000000000000e+00°)
2.92476689963707e+00	(2.51638715491990e-01dB,-1.32937721942587e+01°)	(9.32182518111362e+00dB,0.00000000000000e+00°)
2.99289347245332e+00	(2.63193475220827e-01dB,-1.36276137086021e+01°)	(9.52182518111362e+00dB,0.00000000000000e+00°)
3.06260691700429e+00	(2.75260727676296e-01dB,-1.39710053508448e+01°)	(9.72182518111362e+00dB,0.00000000000000e+00°)
3.13394419628106e+00	(2.87861137350525e-01dB,-1.43243015376710e+01°)	(9.92182518111362e+00dB,0.00000000000000e+00°)
3.20694313425335e+00	(3.01015945608901e-01dB,-1.46878749483663e+01°)	(1.01218251811136e+01dB,0.00000000000000e+00°)
3.28164243592433e+00	(3.14746950251960e-01dB,-1.50621177248089e+01°)	(1.03218251811136e+01dB,0.00000000000000e+00°)
3.35808170785251e+00	(3.29076478072095e-01dB,-1.54474427598239e+01°)	(1.05218251811136e+01dB,0.00000000000000e+00°)
3.43630147915166e+00	(3.44027349266556e-01dB,-1.58442850804288e+01°)	(1.07218251811136e+01dB,0.00000000000000e+00°)
3.51634322297988e+00	(3.59622832401814e-01dB,-1.62531033328958e+01°)	(1.09218251811136e+01dB,0.00000000000000e+00°)
3.59824937852923e+00	(3.75886588433952e-01dB,-1.66743813769344e+01°)	(1.11218251811136e+01dB,0.00000000000000e+00°)
3.68206337352754e+00	(3.92842602071780e-01dB,-1.71086299966757e+01°)	(1.13218251811136e+01dB,0.00000000000000e+00°)
3.76782964726437e+00	(4.10515098520310e-01dB,-1.75563887364748e+01°)	(1.15218251811136e+01dB,0.00000000000000e+00°)
3.85559367415329e+00	(4.28928443357783e-01dB,-1.80182278698480e+01°)	(1.17218251811136e+01dB,0.00000000000000e+00°)
3.94540198784307e+00	(4.48107022973935e-01dB,-1.84947505100873e+01°)	(1.19218251811136e+01dB,0.00000000000000e+00°)
4.03730220589037e+00	(4.68075102626403e-01dB,-1.89865948712291e+01°)	(1.21218251811136e+01dB,0.00000000000000e+00°)
4.13134305500724e+00	(4.88856658748821e-01dB,-1.94944366880570e+01°)	(1.23218251811136e+01dB,0.00000000000000e+00°)
4.22757439689667e+00	(5.10475181662276e-01dB,-2.00189918036424e+01°)	(1.25218251811136e+01dB,0.00000000000000e+00°)
4.32604725468990e+00	(5.32953444293443e-01dB,-2.05610189325268e+01°)	(1.27218251811136e+01dB,0.00000000000000e+00°)
4.42681383999957e+00	(5.56313231880552e-01dB,-2.11213226069346e+01°)	(1.29218251811136e+01dB,0.00000000000000e+00°)
4.52992758060302e+00	(5.80575026943250e-01dB,-2.17007563123174e+01°)	(1.31218251811136e+01dB,0.00000000000000e+00°)
4.63544314877038e+00	(6.05757642995869e-01dB,-2.23002258169229e+01°)	(1.33218251811136e+01dB,0.00000000000000e+00°)
4.74341649025256e+00	(6.31877799586870e-01dB,-2.29206926978610e+01°)	(1.35218251811136e+01dB,0.00000000000000e+00°)
4.85390485394442e+00	(6.58949630241009e-01dB,-2.35631780630983e+01°)	(1.37218251811136e+01dB,0.00000000000000e+00°)
4.96696682223886e+00	(6.86984113758414e-01dB,-2.42287664647841e+01°)	(1.39218251811136e+01dB,0.00000000000000e+00°)
5.08266234208803e+00	(7.15988418079050e-01dB,-2.49186099940170e+01°)	(1.41218251811136e+01dB,0.00000000000000e+00°)
5.20105275678797e+00	(7.45965144550473e-01dB,-2.56339325403193e+01°)	(1.43218251811136e+01dB,0.00000000000000e+00°)
5.32220083850362e+00	(7.76911458941454e-01dB,-2.63760341903207e+01°)	(1.45218251811136e+01dB,0.00000000000000e+00°)
5.44617082155151e+00	(8.08818093933970e-01dB,-2.71462957290349e+01°)	(1.47218251811136e+01dB,0.00000000000000e+00°)
5.57302843645758e+00	(8.41668206119220e-01dB,-2.79461831931106e+01°)	(1.49218251811136e+01dB,0.00000000000000e+00°)
5.70284094480841e+00	(8.75436068751766e-01dB,-2.87772524079564e+01°)	(1.51218251811136e+01dB,0.00000000000000e+00°)
5.83567717491420e+00	(9.10085579733009e-01dB,-2.96411534189525e+01°)	(1.53218251811136e+01dB,0.00000000000000e+00°)
5.97160755830245e+00	(9.45568562577622e-01dB,-3.05396347002611e+01°)	(1.55218251811136e+01dB,0.00000000000000e+00°)
6.11070416706168e+00	(9.81822836578743e-01dB,-3.14745469921202e+01°)	(1.57218251811136e+01dB,0.00000000000000e+00°)
6.25304075205502e+00	(1.01877003118759e+00dB,-3.24478465779502e+01°)	(1.59218251811136e+01dB,0.00000000000000e+00°)
6.39869278202388e+00	(1.05631311897993e+00dB,-3.34615977650652e+01°)	(1.61218251811136e+01dB,0.00000000000000e+00°)
6.54773748360248e+00	(1.09433364178827e+00dB,-3.45179742762257e+01°)	(1.63218251811136e+01dB,0.00000000000000e+00°)
6.70025388226443e+00	(1.13268860602217e+00dB,-3.56192591927470e+01°)	(1.65218251811136e+01dB,0.00000000000000e+00°)
6.85632284422311e+00	(1.17120702638024e+00dB,-3.67678430127084e+01°)	(1.67218251811136e+01dB,0.00000000000000e+00°)
7.01602711930796e+00	(1.20968610271072e+00dB,-3.79662192997847e+01°)	(1.69218251811136e+01dB,0.00000000000000e+00°)
7.17945138483956e+00	(1.24788702349007e+00dB,-3.92169772999213e+01°)	(1.71218251811136e+01dB,0.00000000000000e+00°)
7.34668229052668e+00	(1.28553040220951e+00dB,-4.05227907963063e+01°)	(1.73218251811136e+01dB,0.00000000000000e+00°)
7.51780850440907e+00	(1.32229137099620e+00dB,-4.18864023614615e+01°)	(1.75218251811136e+01dB,0.00000000000000e+00°)
7.69292075987046e+00	(1.35779438028924e+00dB,-4.33106020548870e+01°)	(1.77218251811136e+01dB,0.00000000000000e+00°)
7.87211190374657e+00	(1.39160778564042e+00dB,-4.47981995150624e+01°)	(1.79218251811136e+01dB,0.00000000000000e+00°)
8.05547694555377e+00	(1.42323834395693e+00dB,-4.63519883195864e+01°)	(1.81218251811136e+01dB,0.00000000000000e+00°)
8.24311310786435e+00	(1.45212579271097e+00dB,-4.79747014560186e+01°)	(1.83218251811136e+01dB,0.00000000000000e+00°)
8.43511987785522e+00	(1.47763774719197e+00dB,-4.96689567838899e+01°)	(1.85218251811136e+01dB,0.00000000000000e+00°)
8.63159906005733e+00	(1.49906522212264e+00dB,-5.14371915070612e+01°)	(1.87218251811136e+01dB,0.00000000000000e+00°)
8.83265483033381e+00	(1.51561916265940e+00dB,-5.32815849525402e+01°)	(1.89218251811136e+01dB,0.00000000000000e+00°)
9.03839379111534e+00	(1.52642845143226e+00dB,-5.52039694077480e+01°)	(1.91218251811136e+01dB,0.00000000000000e+00°)
9.24892502792221e+00	(1.53053993534978e+00dB,-5.72057294425422e+01°)	(1.93218251811136e+01dB,0.00000000000000e+00°)
9.46436016720287e+00	(1.52692107732785e+00dB,-5.92876910654566e+01°)	(1.95218251811136e+01dB,0.00000000000000e+00°)
9.68481343551981e+00	(1.51446586903179e+00dB,-6.14500032458377e+01°)	(1.97218251811136e+01dB,0.00000000000000e+00°)
9.91040172011392e+00	(1.49200462297114e+00dB,-6.36920157505063e+01°)	(1.99218251811136e+01dB,0.00000000000000e+00°)
1.01412446308797e+01	(1.45831817595552e+00dB,-6.60121588205913e+01°)	(2.01218251811136e+01dB,0.00000000000000e+00°)
1.03774645637840e+01	(1.41215686241948e+00dB,-6.84078318123988e+01°)	(2.03218251811136e+01dB,0.00000000000000e+00°)
1.06191867657620e+01	(1.35226434277785e+00dB,-7.08753093361119e+01°)	(2.05218251811136e+01dB,0.00000000000000e+00°)
1.08665394011248e+01	(1.27740599784055e+00dB,-7.34096743755680e+01°)	(2.07218251811136e+01dB,0.00000000000000e+00°)
1.11196536195137e+01	(1.18640114217688e+00dB,-7.60047880553546e+01°)	(2.09218251811136e+01dB,0.00000000000000e+00°)
1.13786636254377e+01	(1.07815780604528e+00dB,-7.86533048514069e+01°)	(2.11218251811136e+01dB,0.00000000000000e+00°)
1.16437067494303e+01	(9.51708348477277e-01dB,-8.13467399245838e+01°)	(2.13218251811136e+01dB,0.00000000000000e+00°)
1.19149235208642e+01	(8.06243771576801e-01dB,-8.40755918729280e+01°)	(2.15218251811136e+01dB,0.00000000000000e+00°)
1.21924577424615e+01	(6.41144390609327e-01dB,-8.68295197634430e+01°)	(2.17218251811136e+01dB,0.00000000000000e+00°)
1.24764565665400e+01	(4.56004544707592e-01dB,-8.95975682889459e+01°)	(2.19218251811136e+01dB,0.00000000000000e+00°)
1.27670705730356e+01	(2.50649344333724e-01dB,-9.23684299772927e+01°)	(2.21218251811136e+01dB,0.00000000000000e+00°)
1.30644538493412e+01	(2.51420310670333e-02dB,-9.51307293253946e+01°)	(2.23218251811136e+01dB,0.00000000000000e+00°)
1.33687640720061e+01	(-2.20218692603219e-01dB,-9.78733112295490e+01°)	(2.25218251811136e+01dB,0.00000000000000e+00°)
1.36801625903386e+01	(-4.84911129292867e-01dB,-1.00585515585072e+02°)	(2.27218251811136e+01dB,0.00000000000000e+00°)
1.39988145119548e+01	(-7.68211772475273e-01dB,-1.03257421523311e+02°)	(2.29218251811136e+01dB,0.00000000000000e+00°)
1.43248887903215e+01	(-1.06922345000520e+00dB,-1.05880048152984e+02°)	(2.31218251811136e+01dB,0.00000000000000e+00°)
1.46585583143371e+01	(-1.38690822117916e+00dB,-1.08445503280021e+02°)	(2.33218251811136e+01dB,0.00000000000000e+00°)
1.50000000000000e+01	(-1.72012266237757e+00dB,-1.10947076642988e+02°)	(2.35218251811136e+01dB,0.00000000000000e+00°)
1.53493948842113e+01	(-2.06765328321403e+00dB,-1.13379278982220e+02°)	(2.37218251811136e+01dB,0.00000000000000e+00°)
1.57069282207634e+01	(-2.42825013429201e+00dB,-1.15737832181559e+02°)	(2.39218251811136e+01dB,0.00000000000000e+00°)
1.60727895785640e+01	(-2.80065712063713e+00dB,-1.18019618444922e+02°)	(2.41218251811136e+01dB,0.00000000000000e+00°)
1.64471729421477e+01	(-3.18363803939477e+00dB,-1.20222597910906e+02°)	(2.43218251811136e+01dB,0.00000000000000e+00°)
1.68302768145294e+01	(-3.57599784601358e+00dB,-1.22345704388921e+02°)	(2.45218251811136e+01dB,0.00000000000000e+00°)
1.72223043224532e+01	(-3.97659907014331e+00dB,-1.24388728272877e+02°)	(2.47218251811136e+01dB,0.00000000000000e+00°)
1.76234633240929e+01	(-4.38437362404995e+00dB,-1.26352194458144e+02°)	(2.49218251811136e+01dB,0.00000000000000e+00°)
1.80339665192611e+01	(-4.79833046579706e+00dB,-1.28237241547532e+02°)	(2.51218251811136e+01dB,0.00000000000000e+00°)
1.84540315621857e+01	(-5.21755970468680e+00dB,-1.30045507023426e+02°)	(2.53218251811136e+01dB,0.00000000000000e+00°)
1.88838811769124e+01	(-5.64123378396574e+00dB,-1.31779021558081e+02°)	(2.55218251811136e+01dB,0.00000000000000e+00°)
1.93237432753969e+01	(-6.06860636534160e+00dB,-1.33440114335711e+02°)	(2.57218251811136e+01dB,0.00000000000000e+00°)
1.97738510783460e+01	(-6.49900949069091e+00dB,-1.35031330214577e+02°)	(2.59218251811136e+01dB,0.00000000000000e+00°)
2.02344432388747e+01	(-6.93184952500915e+00dB,-1.36555358768787e+02°)	(2.61218251811136e+01dB,0.00000000000000e+00°)
2.07057639690432e+01	(-7.36660230402497e+00dB,-1.38014974695523e+02°)	(2.63218251811136e+01dB,0.00000000000000e+00°)
2.11880631693412e+01	(-7.80280782909158e+00dB,-1.39412988717443e+02°)	(2.65218251811136e+01dB,0.00000000000000e+00°)
2.16815965611888e+01	(-8.24006477681611e+00dB,-1.40752207911263e+02°)	(2.67218251811136e+01dB,0.00000000000000e+00°)
2.21866258225230e+01	(-8.67802502461415e+00dB,-1.42035404312516e+02°)	(2.69218251811136e+01dB,0.00000000000000e+00°)
2.27034187265430e+01	(-9.11638833730191e+00dB,-1.43265290648771e+02°)	(2.71218251811136e+01dB,0.00000000000000e+00°)
2.32322492836871e+01	(-9.55489731399950e+00dB,-1.44444502110756e+02°)	(2.73218251811136e+01dB,0.00000000000000e+00°)
2.37733978869166e+01	(-9.99333265828160e+00dB,-1.45575583160907e+02°)	(2.75218251811136e+01dB,0.00000000000000e+00°)
2.43271514603839e+01	(-1.04315088065323e+01dB,-1.46660978485668e+02°)	(2.77218251811136e+01dB,0.00000000000000e+00°)
2.48938036115633e+01	(-1.08692699285483e+01dB,-1.47703027309791e+02°)	(2.79218251811136e+01dB,0.00000000000000e+00°)
2.54736547869261e+01	(-1.13064862993063e+01dB,-1.48703960400601e+02°)	(2.81218251811136e+01dB,0.00000000000000e+00°)
2.60670124312405e+01	(-1.17430510302971e+01dB,-1.49665899192742e+02°)	(2.83218251811136e+01dB,0.00000000000000e+00°)
2.66741911505837e+01	(-1.21788771418928e+01dB,-1.50590856556935e+02°)	(2.85218251811136e+01dB,0.00000000000000e+00°)
2.72955128791496e+01	(-1.26138949540083e+01dB,-1.51480738818573e+02°)	(2.87218251811136e+01dB,0.00000000000000e+00°)
2.79313070499429e+01	(-1.30480497701243e+01dB,-1.52337348703436e+02°)	(2.89218251811136e+01dB,0.00000000000000e+00°)
2.85819107694486e+01	(-1.34812998290073e+01dB,-1.53162388948955e+02°)	(2.91218251811136e+01dB,0.00000000000000e+00°)
2.92476689963706e+01	(-1.39136144987440e+01dB,-1.53957466371119e+02°)	(2.93218251811136e+01dB,0.00000000000000e+00°)
2.99289347245331e+01	(-1.43449726886793e+01dB,-1.54724096220270e+02°)	(2.95218251811136e+01dB,0.00000000000000e+00°)
3.06260691700428e+01	(-1.47753614562460e+01dB,-1.55463706694833e+02°)	(2.97218251811136e+01dB,0.00000000000000e+00°)
3.13394419628105e+01	(-1.52047747873252e+01dB,-1.56177643511360e+02°)	(2.99218251811136e+01dB,0.00000000000000e+00°)
3.20694313425333e+01	(-1.56332125305371e+01dB,-1.56867174453239e+02°)	(3.01218251811136e+01dB,0.00000000000000e+00°)
3.28164243592432e+01	(-1.60606794676483e+01dB,-1.57533493839768e+02°)	(3.03218251811136e+01dB,0.00000000000000e+00°)
3.35808170785250e+01	(-1.64871845040194e+01dB,-1.58177726872862e+02°)	(3.05218251811136e+01dB,0.00000000000000e+00°)
3.43630147915164e+01	(-1.69127399646781e+01dB,-1.58800933831081e+02°)	(3.07218251811136e+01dB,0.00000000000000e+00°)
3.51634322297987e+01	(-1.73373609831500e+01dB,-1.59404114090462e+02°)	(3.09218251811136e+01dB,0.00000000000000e+00°)
3.59824937852922e+01	(-1.77610649716071e+01dB,-1.59988209959360e+02°)	(3.11218251811136e+01dB,0.00000000000000e+00°)
3.68206337352753e+01	(-1.81838711621997e+01dB,-1.60554110320481e+02°)	(3.13218251811136e+01dB,0.00000000000000e+00°)
3.76782964726435e+01	(-1.86058002106125e+01dB,-1.61102654077888e+02°)	(3.15218251811136e+01dB,0.00000000000000e+00°)
3.85559367415328e+01	(-1.90268738539454e+01dB,-1.61634633410241e+02°)	(3.17218251811136e+01dB,0.00000000000000e+00°)
3.94540198784306e+01	(-1.94471146159628e+01dB,-1.62150796834132e+02°)	(3.19218251811136e+01dB,0.00000000000000e+00°)
4.03730220589036e+01	(-1.98665455535987e+01dB,-1.62651852083242e+02°)	(3.21218251811136e+01dB,0.00000000000000e+00°)
4.13134305500723e+01	(-2.02851900393459e+01dB,-1.63138468810389e+02°)	(3.23218251811136e+01dB,0.00000000000000e+00°)
4.22757439689666e+01	(-2.07030715748162e+01dB,-1.63611281120422e+02°)	(3.25218251811136e+01dB,0.00000000000000e+00°)
4.32604725468989e+01	(-2.11202136313390e+01dB,-1.64070889942435e+02°)	(3.27218251811136e+01dB,0.00000000000000e+00°)
4.42681383999956e+01	(-2.15366395139714e+01dB,-1.64517865250097e+02°)	(3.29218251811136e+01dB,0.00000000000000e+00°)
4.52992758060300e+01	(-2.19523722457426e+01dB,-1.64952748138942e+02°)	(3.31218251811136e+01dB,0.00000000000000e+00°)
4.63544314877036e+01	(-2.23674344693425e+01dB,-1.65376052769410e+02°)	(3.33218251811136e+01dB,0.00000000000000e+00°)
4.74341649025255e+01	(-2.27818483638094e+01dB,-1.65788268184252e+02°)	(3.35218251811136e+01dB,0.00000000000000e+00°)
4.85390485394440e+01	(-2.31956355740675e+01dB,-1.66189860008644e+02°)	(3.37218251811136e+01dB,0.00000000000000e+00°)
4.96696682223884e+01	(-2.36088171514246e+01dB,-1.66581272041052e+02°)	(3.39218251811136e+01dB,0.00000000000000e+00°)
5.08266234208801e+01	(-2.40214135033691e+01dB,-1.66962927742527e+02°)	(3.41218251811136e+01dB,0.00000000000000e+00°)
5.20105275678795e+01	(-2.44334443511966e+01dB,-1.67335231631753e+02°)	(3.43218251811136e+01dB,0.00000000000000e+00°)
5.32220083850361e+01	(-2.48449286941723e+01dB,-1.67698570592783e+02°)	(3.45218251811136e+01dB,0.00000000000000e+00°)
5.44617082155149e+01	(-2.52558847790778e+01dB,-1.68053315102001e+02°)	(3.47218251811136e+01dB,0.00000000000000e+00°)
5.57302843645756e+01	(-2.56663300741199e+01dB,-1.68399820380515e+02°)	(3.49218251811136e+01dB,0.00000000000000e+00°)
5.70284094480839e+01	(-2.60762812462856e+01dB,-1.68738427477759e+02°)	(3.51218251811136e+01dB,0.00000000000000e+00°)
5.83567717491418e+01	(-2.64857541413243e+01dB,-1.69069464291782e+02°)	(3.53218251811136e+01dB,0.00000000000000e+00°)
5.97160755830243e+01	(-2.68947637656103e+01dB,-1.69393246531333e+02°)	(3.55218251811136e+01dB,0.00000000000000e+00°)
6.11070416706166e+01	(-2.73033242692117e+01dB,-1.69710078624525e+02°)	(3.57218251811136e+01dB,0.00000000000000e+00°)
6.25304075205500e+01	(-2.77114489295416e+01dB,-1.70020254578593e+02°)	(3.59218251811136e+01dB,0.00000000000000e+00°)
6.39869278202386e+01	(-2.81191501350156e+01dB,-1.70324058794922e+02°)	(3.61218251811136e+01dB,0.00000000000000e+00°)
6.54773748360246e+01	(-2.85264393681713e+01dB,-1.70621766843293e+02°)	(3.63218251811136e+01dB,0.00000000000000e+00°)
6.70025388226441e+01	(-2.89333271877393e+01dB,-1.70913646199019e+02°)	(3.65218251811136e+01dB,0.00000000000000e+00°)
6.85632284422309e+01	(-2.93398232091680e+01dB,-1.71199956946411e+02°)	(3.67218251811136e+01dB,0.00000000000000e+00°)
7.01602711930794e+01	(-2.97459360831228e+01dB,-1.71480952451796e+02°)	(3.69218251811136e+01dB,0.00000000000000e+00°)
7.17945138483954e+01	(-3.01516734714848e+01dB,-1.71756880009097e+02°)	(3.71218251811136e+01dB,0.00000000000000e+00°)
7.34668229052665e+01	(-3.05570420203742e+01dB,-1.72027981460776e+02°)	(3.73218251811136e+01dB,0.00000000000000e+00°)
7.51780850440904e+01	(-3.09620473297193e+01dB,-1.72294493796784e+02°)	(3.75218251811136e+01dB,0.00000000000000e+00°)
